date Thu Apr 2 10:37:15.950 am 2020
base hex  timestamps absolute
internal events logged
// version 8.2.1
   0.005921 CAN 1 Status:chip status error active
   1.005921 CAN 1 Status:chip status error active
   2.005922 CAN 1 Status:chip status error active
   3.005922 CAN 1 Status:chip status error active
   4.000621 1  7DF             Tx   d 8 02 3E 80 00 00 00 00 00  Length = 0 BitCount = 124 ID = 2015  // 1  OTP(01) Atom 7DF->7DF : SF Length:   02         [ 3E 80 ]
   4.005922 CAN 1 Status:chip status error active
   5.005922 CAN 1 Status:chip status error active
   6.005923 CAN 1 Status:chip status error active
   7.005923 CAN 1 Status:chip status error active
   8.000537 1  7DF             Tx   d 8 02 3E 80 00 00 00 00 00  Length = 0 BitCount = 124 ID = 2015  // 1  OTP(02) Atom 7DF->7DF : SF Length:   02         [ 3E 80 ]
   8.005923 CAN 1 Status:chip status error active
   9.005924 CAN 1 Status:chip status error active
   9.498709 1  7DF             Tx   d 8 02 10 02 AA AA AA AA AA  Length = 0 BitCount = 116 ID = 2015  // 1  OTP(03) Atom 7DF->7DF : SF Length:   02         [ 10 02 ]
   9.499693 1  7B0             Rx   d 8 06 50 02 00 32 01 F4 00  Length = 235910 BitCount = 122 ID = 1968
   9.740585 1  730             Tx   d 8 02 27 05 AA AA AA AA AA  Length = 222015 BitCount = 114 ID = 1840
   9.741697 1  7B0             Rx   d 8 06 67 05 11 22 33 44 00  Length = 223910 BitCount = 116 ID = 1968
   9.782739 1  730             Tx   d 8 06 27 06 EE DD CC BB AA  Length = 226244 BitCount = 116 ID = 1840
   9.783703 1  7B0             Rx   d 8 02 67 06 00 00 00 00 00  Length = 235910 BitCount = 122 ID = 1968
   9.788131 1  730             Tx   d 8 10 0D 31 01 FF 00 44 08  Length = 232000 BitCount = 119 ID = 1840
   9.788431 1  7B0             Rx   d 8 30 08 00 00 00 00 00 00  Length = 239910 BitCount = 124 ID = 1968
   9.788947 1  730             Tx   d 8 21 00 00 00 00 00 20 00  Length = 244244 BitCount = 125 ID = 1840
   9.789707 1  7B0             Rx   d 8 05 71 01 FF 00 00 00 00  Length = 233910 BitCount = 121 ID = 1968
   9.791765 1  730             Tx   d 8 10 0B 34 00 44 08 00 00  Length = 236244 BitCount = 121 ID = 1840
   9.792061 1  7B0             Rx   d 8 30 08 00 00 00 00 00 00  Length = 239910 BitCount = 124 ID = 1968
   9.792625 1  730             Tx   d 8 21 00 00 00 20 00 AA AA  Length = 234244 BitCount = 120 ID = 1840
   9.793715 1  7B0             Rx   d 8 04 74 20 01 02 00 00 00  Length = 233910 BitCount = 121 ID = 1968
   9.795696 1  730             Tx   d 8 10 82 36 01 28 04 00 20  Length = 232244 BitCount = 119 ID = 1840
   9.795987 1  7B0             Rx   d 8 30 08 00 00 00 00 00 00  Length = 239910 BitCount = 124 ID = 1968
   9.796548 1  730             Tx   d 8 21 45 01 00 08 21 03 00  Length = 236244 BitCount = 121 ID = 1840
   9.796790 1  730             Tx   d 8 22 08 23 03 00 08 27 03  Length = 236244 BitCount = 121 ID = 1840
   9.797030 1  730             Tx   d 8 23 00 08 2B 03 00 08 2F  Length = 234000 BitCount = 120 ID = 1840
   9.797278 1  730             Tx   d 8 24 03 00 08 00 00 00 00  Length = 242000 BitCount = 124 ID = 1840
   9.797526 1  730             Tx   d 8 25 00 00 00 00 00 00 00  Length = 242000 BitCount = 124 ID = 1840
   9.797770 1  730             Tx   d 8 26 00 00 00 00 00 33 03  Length = 238000 BitCount = 122 ID = 1840
   9.798012 1  730             Tx   d 8 27 00 08 35 03 00 08 00  Length = 236000 BitCount = 121 ID = 1840
   9.798256 1  730             Tx   d 8 28 00 00 00 37 03 00 08  Length = 238000 BitCount = 122 ID = 1840
   9.798556 1  7B0             Rx   d 8 30 08 00 00 00 00 00 00  Length = 239910 BitCount = 124 ID = 1968
   9.799088 1  730             Tx   d 8 29 39 03 00 08 5F 01 00  Length = 232259 BitCount = 119 ID = 1840
   9.799329 1  730             Tx   d 8 2A 08 5F 01 00 08 5F 01  Length = 234259 BitCount = 120 ID = 1840
   9.799569 1  730             Tx   d 8 2B 00 08 5F 01 00 08 5F  Length = 234015 BitCount = 120 ID = 1840
   9.799809 1  730             Tx   d 8 2C 01 00 08 5F 01 00 08  Length = 234015 BitCount = 120 ID = 1840
   9.800049 1  730             Tx   d 8 2D 5F 01 00 08 5F 01 00  Length = 234015 BitCount = 120 ID = 1840
   9.800291 1  730             Tx   d 8 2E 08 5F 01 00 08 5F 01  Length = 236015 BitCount = 121 ID = 1840
   9.800531 1  730             Tx   d 8 2F 00 08 5F 01 00 08 5F  Length = 234015 BitCount = 120 ID = 1840
   9.800773 1  730             Tx   d 8 20 01 00 08 5F 01 00 08  Length = 236015 BitCount = 121 ID = 1840
   9.801077 1  7B0             Rx   d 8 30 08 00 00 00 00 00 00  Length = 239910 BitCount = 124 ID = 1968
   9.801509 1  730             Tx   d 8 21 5F 01 00 08 5F 01 00  Length = 234244 BitCount = 120 ID = 1840
   9.801745 1  730             Tx   d 8 22 08 5F 01 00 08 AA AA  Length = 230244 BitCount = 118 ID = 1840
   9.802687 1  7B0             Rx   d 8 03 7F 36 78 00 00 00 00  Length = 233910 BitCount = 121 ID = 1968
   9.802931 1  7B0             Rx   d 8 02 76 01 00 00 00 00 00  Length = 235910 BitCount = 122 ID = 1968
   9.804553 1  730             Tx   d 8 10 82 36 02 5F 01 00 08  Length = 234244 BitCount = 120 ID = 1840
   9.804847 1  7B0             Rx   d 8 30 08 00 00 00 00 00 00  Length = 239910 BitCount = 124 ID = 1968
   9.805419 1  730             Tx   d 8 21 5F 01 00 08 5F 01 00  Length = 234244 BitCount = 120 ID = 1840
   9.805664 1  730             Tx   d 8 22 08 5F 01 00 08 5F 01  Length = 238244 BitCount = 122 ID = 1840
   9.805904 1  730             Tx   d 8 23 00 08 5F 01 00 08 5F  Length = 234000 BitCount = 120 ID = 1840
   9.806144 1  730             Tx   d 8 24 01 00 08 5F 01 00 08  Length = 234000 BitCount = 120 ID = 1840
   9.806386 1  730             Tx   d 8 25 5F 01 00 08 5F 01 00  Length = 236000 BitCount = 121 ID = 1840
   9.806628 1  730             Tx   d 8 26 08 5F 01 00 08 5F 01  Length = 236000 BitCount = 121 ID = 1840
   9.806868 1  730             Tx   d 8 27 00 08 5F 01 00 08 5F  Length = 234000 BitCount = 120 ID = 1840
   9.807110 1  730             Tx   d 8 28 01 00 08 5F 01 00 08  Length = 236000 BitCount = 121 ID = 1840
   9.807416 1  7B0             Rx   d 8 30 08 00 00 00 00 00 00  Length = 239910 BitCount = 124 ID = 1968
   9.807870 1  730             Tx   d 8 29 5F 01 00 08 5F 01 00  Length = 234259 BitCount = 120 ID = 1840
   9.808110 1  730             Tx   d 8 2A 08 5F 01 00 08 5F 01  Length = 234259 BitCount = 120 ID = 1840
   9.808350 1  730             Tx   d 8 2B 00 08 5F 01 00 08 5F  Length = 234015 BitCount = 120 ID = 1840
   9.808590 1  730             Tx   d 8 2C 01 00 08 5F 01 00 08  Length = 234015 BitCount = 120 ID = 1840
   9.808830 1  730             Tx   d 8 2D 5F 01 00 08 5F 01 00  Length = 234015 BitCount = 120 ID = 1840
   9.809072 1  730             Tx   d 8 2E 08 5F 01 00 08 5F 01  Length = 236015 BitCount = 121 ID = 1840
   9.809312 1  730             Tx   d 8 2F 00 08 5F 01 00 08 5F  Length = 234015 BitCount = 120 ID = 1840
   9.809554 1  730             Tx   d 8 20 01 00 08 5F 01 00 08  Length = 236015 BitCount = 121 ID = 1840
   9.809854 1  7B0             Rx   d 8 30 08 00 00 00 00 00 00  Length = 239910 BitCount = 124 ID = 1968
   9.810345 1  730             Tx   d 8 21 5F 01 00 08 5F 01 00  Length = 234244 BitCount = 120 ID = 1840
   9.810581 1  730             Tx   d 8 22 08 5F 01 00 08 AA AA  Length = 230244 BitCount = 118 ID = 1840
   9.811709 1  7B0             Rx   d 8 03 7F 36 78 00 00 00 00  Length = 233910 BitCount = 121 ID = 1968
   9.811953 1  7B0             Rx   d 8 02 76 02 00 00 00 00 00  Length = 235910 BitCount = 122 ID = 1968
   9.813539 1  730             Tx   d 8 10 82 36 03 5F 01 00 08  Length = 232244 BitCount = 119 ID = 1840
   9.813841 1  7B0             Rx   d 8 30 08 00 00 00 00 00 00  Length = 239910 BitCount = 124 ID = 1968
   9.814335 1  730             Tx   d 8 21 5F 01 00 08 5F 01 00  Length = 234244 BitCount = 120 ID = 1840
   9.814580 1  730             Tx   d 8 22 08 5F 01 00 08 5F 01  Length = 238244 BitCount = 122 ID = 1840
   9.814820 1  730             Tx   d 8 23 00 08 5F 01 00 08 5F  Length = 234000 BitCount = 120 ID = 1840
   9.815060 1  730             Tx   d 8 24 01 00 08 5F 01 00 08  Length = 234000 BitCount = 120 ID = 1840
   9.815302 1  730             Tx   d 8 25 5F 01 00 08 5F 01 00  Length = 236000 BitCount = 121 ID = 1840
   9.815544 1  730             Tx   d 8 26 08 5F 01 00 08 5F 01  Length = 236000 BitCount = 121 ID = 1840
   9.815784 1  730             Tx   d 8 27 00 08 DF F8 0C D0 01  Length = 234000 BitCount = 120 ID = 1840
   9.816022 1  730             Tx   d 8 28 F0 98 F8 00 48 00 47  Length = 232000 BitCount = 119 ID = 1840
   9.816328 1  7B0             Rx   d 8 30 08 00 00 00 00 00 00  Length = 239910 BitCount = 124 ID = 1968
   9.816754 1  730             Tx   d 8 29 91 02 00 08 28 04 00  Length = 236244 BitCount = 121 ID = 1840
   9.816990 1  730             Tx   d 8 2A 20 06 48 80 47 06 48  Length = 230244 BitCount = 118 ID = 1840
   9.817232 1  730             Tx   d 8 2B 00 47 FE E7 FE E7 FE  Length = 236000 BitCount = 121 ID = 1840
   9.817470 1  730             Tx   d 8 2C E7 FE E7 FE E7 FE E7  Length = 232000 BitCount = 119 ID = 1840
   9.817712 1  730             Tx   d 8 2D FE E7 FE E7 FE E7 FE  Length = 236000 BitCount = 121 ID = 1840
   9.817946 1  730             Tx   d 8 2E E7 0D 11 00 08 31 01  Length = 228000 BitCount = 117 ID = 1840
   9.818180 1  730             Tx   d 8 2F 00 08 10 B5 8C B0 04  Length = 228000 BitCount = 117 ID = 1840
   9.818410 1  730             Tx   d 8 20 46 2C 22 55 A1 01 A8  Length = 224000 BitCount = 115 ID = 1840
   9.818708 1  7B0             Rx   d 8 30 08 00 00 00 00 00 00  Length = 239910 BitCount = 124 ID = 1968
   9.819132 1  730             Tx   d 8 21 01 F0 4A F8 01 A9 20  Length = 236244 BitCount = 121 ID = 1840
   9.819371 1  730             Tx   d 8 22 46 01 F0 6B F8 AA AA  Length = 232244 BitCount = 119 ID = 1840
   9.819700 1  7B0             Rx   d 8 03 7F 36 78 00 00 00 00  Length = 233910 BitCount = 121 ID = 1968
   9.819947 1  7B0             Rx   d 8 02 76 03 00 00 00 00 00  Length = 237910 BitCount = 123 ID = 1968
   9.821577 1  730             Tx   d 8 10 82 36 04 04 F1 05 04  Length = 230244 BitCount = 118 ID = 1840
   9.821889 1  7B0             Rx   d 8 30 08 00 00 00 00 00 00  Length = 239910 BitCount = 124 ID = 1968
   9.822341 1  730             Tx   d 8 21 A0 78 A0 F1 0D 00 A0  Length = 230244 BitCount = 118 ID = 1840
   9.822579 1  730             Tx   d 8 22 70 E0 7A A0 F1 05 00  Length = 232244 BitCount = 119 ID = 1840
   9.822815 1  730             Tx   d 8 23 E0 72 E0 7B A0 F1 2C  Length = 230000 BitCount = 118 ID = 1840
   9.823055 1  730             Tx   d 8 24 00 E0 73 E0 78 A0 F1  Length = 234000 BitCount = 120 ID = 1840
   9.823293 1  730             Tx   d 8 25 0B 00 E0 70 60 79 A0  Length = 232000 BitCount = 119 ID = 1840
   9.823531 1  730             Tx   d 8 26 F1 30 00 60 71 E0 79  Length = 232000 BitCount = 119 ID = 1840
   9.823767 1  730             Tx   d 8 27 00 F1 2B 00 E0 71 20  Length = 230000 BitCount = 118 ID = 1840
   9.824005 1  730             Tx   d 8 28 7F 00 F1 32 00 20 77  Length = 232000 BitCount = 119 ID = 1840
   9.824295 1  7B0             Rx   d 8 30 08 00 00 00 00 00 00  Length = 239925 BitCount = 124 ID = 1968
   9.824744 1  730             Tx   d 8 29 E0 7F 00 F1 2E 00 E0  Length = 230259 BitCount = 118 ID = 1840
   9.824982 1  730             Tx   d 8 2A 77 E0 7C A0 F1 0D 00  Length = 232259 BitCount = 119 ID = 1840
   9.825224 1  730             Tx   d 8 2B E0 74 20 7D A0 F1 42  Length = 236015 BitCount = 121 ID = 1840
   9.825462 1  730             Tx   d 8 2C 00 20 75 60 78 00 F1  Length = 232015 BitCount = 119 ID = 1840
   9.825704 1  730             Tx   d 8 2D 03 00 60 70 60 7F A0  Length = 236015 BitCount = 121 ID = 1840
   9.825938 1  730             Tx   d 8 2E F1 37 00 60 77 20 7E  Length = 228015 BitCount = 117 ID = 1840
   9.826180 1  730             Tx   d 8 2F A0 F1 33 00 20 76 60  Length = 236015 BitCount = 121 ID = 1840
   9.826416 1  730             Tx   d 8 20 7A A0 F1 17 00 60 72  Length = 230015 BitCount = 118 ID = 1840
   9.826734 1  7B0             Rx   d 8 30 08 00 00 00 00 00 00  Length = 239910 BitCount = 124 ID = 1968
   9.827276 1  730             Tx   d 8 21 60 7E A0 F1 06 00 60  Length = 236244 BitCount = 121 ID = 1840
   9.827514 1  730             Tx   d 8 22 76 E0 7E A0 F1 AA AA  Length = 232244 BitCount = 119 ID = 1840
   9.828694 1  7B0             Rx   d 8 03 7F 36 78 00 00 00 00  Length = 233910 BitCount = 121 ID = 1968
   9.828938 1  7B0             Rx   d 8 02 76 04 00 00 00 00 00  Length = 235910 BitCount = 122 ID = 1968
   9.830538 1  730             Tx   d 8 10 82 36 05 3C 00 E0 76  Length = 230244 BitCount = 118 ID = 1840
   9.830828 1  7B0             Rx   d 8 30 08 00 00 00 00 00 00  Length = 239910 BitCount = 124 ID = 1968
   9.831215 1  730             Tx   d 8 21 20 79 A0 F1 34 00 20  Length = 232244 BitCount = 119 ID = 1840
   9.831449 1  730             Tx   d 8 22 71 A0 79 A0 F1 0E 00  Length = 228244 BitCount = 117 ID = 1840
   9.831687 1  730             Tx   d 8 23 A0 71 A0 7F A0 F1 34  Length = 232000 BitCount = 119 ID = 1840
   9.831927 1  730             Tx   d 8 24 00 A0 77 A0 7D A0 F1  Length = 234000 BitCount = 120 ID = 1840
   9.832161 1  730             Tx   d 8 25 3A 00 A0 75 20 7B A0  Length = 228000 BitCount = 117 ID = 1840
   9.832399 1  730             Tx   d 8 26 F1 30 00 20 73 20 7C  Length = 232000 BitCount = 119 ID = 1840
   9.832635 1  730             Tx   d 8 27 A0 F1 38 00 20 74 94  Length = 230000 BitCount = 118 ID = 1840
   9.832877 1  730             Tx   d 8 28 F8 22 00 A0 F1 35 00  Length = 236000 BitCount = 121 ID = 1840
   9.833181 1  7B0             Rx   d 8 30 08 00 00 00 00 00 00  Length = 239910 BitCount = 124 ID = 1968
   9.833629 1  730             Tx   d 8 29 84 F8 22 00 20 78 A0  Length = 232259 BitCount = 119 ID = 1840
   9.833863 1  730             Tx   d 8 2A F1 30 00 20 70 A0 7B  Length = 228259 BitCount = 117 ID = 1840
   9.834099 1  730             Tx   d 8 2B 00 F1 03 00 A0 73 60  Length = 230015 BitCount = 118 ID = 1840
   9.834339 1  730             Tx   d 8 2C 7C A0 F1 05 00 60 74  Length = 234015 BitCount = 120 ID = 1840
   9.834575 1  730             Tx   d 8 2D 94 F8 21 00 A0 F1 37  Length = 230015 BitCount = 118 ID = 1840
   9.834813 1  730             Tx   d 8 2E 00 84 F8 21 00 94 F8  Length = 232015 BitCount = 119 ID = 1840
   9.835049 1  730             Tx   d 8 2F 23 00 A0 F1 38 00 84  Length = 230015 BitCount = 118 ID = 1840
   9.835291 1  730             Tx   d 8 20 F8 23 00 A0 7A A0 F1  Length = 236015 BitCount = 121 ID = 1840
   9.835588 1  7B0             Rx   d 8 30 08 00 00 00 00 00 00  Length = 239925 BitCount = 124 ID = 1968
   9.835984 1  730             Tx   d 8 21 02 00 A0 72 A0 7E A0  Length = 234259 BitCount = 120 ID = 1840
   9.836214 1  730             Tx   d 8 22 F1 43 00 A0 76 AA AA  Length = 224259 BitCount = 115 ID = 1840
   9.836688 1  7B0             Rx   d 8 03 7F 36 78 00 00 00 00  Length = 233910 BitCount = 121 ID = 1968
   9.836934 1  7B0             Rx   d 8 02 76 05 00 00 00 00 00  Length = 237910 BitCount = 123 ID = 1968
   9.838514 1  730             Tx   d 8 10 82 36 06 60 7D A0 F1  Length = 232259 BitCount = 119 ID = 1840
   9.838822 1  7B0             Rx   d 8 30 08 00 00 00 00 00 00  Length = 239910 BitCount = 124 ID = 1968
   9.839206 1  730             Tx   d 8 21 06 00 60 75 A4 F1 05  Length = 232259 BitCount = 119 ID = 1840
   9.839439 1  730             Tx   d 8 22 04 0C B0 10 BD 8C B0  Length = 226259 BitCount = 116 ID = 1840
   9.839669 1  730             Tx   d 8 23 30 21 68 46 00 F0 D2  Length = 224015 BitCount = 115 ID = 1840
   9.839905 1  730             Tx   d 8 24 FF 00 F0 4F F8 15 A1  Length = 230015 BitCount = 118 ID = 1840
   9.840139 1  730             Tx   d 8 25 1A 48 00 F0 C5 F8 1A  Length = 228015 BitCount = 117 ID = 1840
   9.840375 1  730             Tx   d 8 26 A1 18 48 00 F0 C1 F8  Length = 230015 BitCount = 118 ID = 1840
   9.840607 1  730             Tx   d 8 27 68 46 FF F7 5A FF 69  Length = 226015 BitCount = 116 ID = 1840
   9.840841 1  730             Tx   d 8 28 46 15 48 00 F0 BA F8  Length = 228015 BitCount = 117 ID = 1840
   9.841147 1  7B0             Rx   d 8 30 08 00 00 00 00 00 00  Length = 239925 BitCount = 124 ID = 1968
   9.841759 1  730             Tx   d 8 29 17 A1 13 48 00 F0 B6  Length = 226259 BitCount = 116 ID = 1840
   9.841999 1  730             Tx   d 8 2A F8 00 BF FE E7 66 6C  Length = 234015 BitCount = 120 ID = 1840
   9.842225 1  730             Tx   d 8 2B 61 67 7B 63 61 6E 6F  Length = 220015 BitCount = 113 ID = 1840
   9.842451 1  730             Tx   d 8 2C 65 63 72 37 2D 7A 64  Length = 220015 BitCount = 113 ID = 1840
   9.842681 1  730             Tx   d 8 2D 39 68 2D 31 65 6D 69  Length = 224015 BitCount = 115 ID = 1840
   9.842907 1  730             Tx   d 8 2E 2D 6F 72 38 6D 2D 66  Length = 220015 BitCount = 113 ID = 1840
   9.843133 1  730             Tx   d 8 2F 38 76 6D 32 6F 64 38  Length = 220015 BitCount = 113 ID = 1840
   9.843373 1  730             Tx   d 8 20 31 6E 66 6B 7D 00 00  Length = 234015 BitCount = 120 ID = 1840
   9.843661 1  7B0             Rx   d 8 30 08 00 00 00 00 00 00  Length = 239910 BitCount = 124 ID = 1968
   9.844081 1  730             Tx   d 8 21 57 65 6C 63 6F 6D 65  Length = 222244 BitCount = 114 ID = 1840
   9.844311 1  730             Tx   d 8 22 20 63 68 61 6C AA AA  Length = 224244 BitCount = 115 ID = 1840
   9.844709 1  7B0             Rx   d 8 03 7F 36 78 00 00 00 00  Length = 233910 BitCount = 121 ID = 1968
   9.844953 1  7B0             Rx   d 8 02 76 06 00 00 00 00 00  Length = 235910 BitCount = 122 ID = 1968
   9.846469 1  730             Tx   d 8 10 82 36 07 6C 65 6E 67  Length = 228244 BitCount = 117 ID = 1840
   9.846761 1  7B0             Rx   d 8 30 08 00 00 00 00 00 00  Length = 239910 BitCount = 124 ID = 1968
   9.847136 1  730             Tx   d 8 21 65 72 21 0D 0A 00 00  Length = 226244 BitCount = 116 ID = 1840
   9.847378 1  730             Tx   d 8 22 00 00 38 01 40 54 68  Length = 236244 BitCount = 121 ID = 1840
   9.847610 1  730             Tx   d 8 23 65 20 66 6C 61 67 20  Length = 226000 BitCount = 116 ID = 1840
   9.847846 1  730             Tx   d 8 24 69 73 3A 0D 0A 00 00  Length = 230000 BitCount = 118 ID = 1840
   9.848084 1  730             Tx   d 8 25 70 47 00 BF FE E7 00  Length = 232000 BitCount = 119 ID = 1840
   9.848320 1  730             Tx   d 8 26 BF FE E7 00 BF FE E7  Length = 230000 BitCount = 118 ID = 1840
   9.848560 1  730             Tx   d 8 27 00 BF FE E7 70 47 70  Length = 234000 BitCount = 120 ID = 1840
   9.848798 1  730             Tx   d 8 28 47 70 47 70 47 00 00  Length = 232000 BitCount = 119 ID = 1840
   9.849086 1  7B0             Rx   d 8 30 08 00 00 00 00 00 00  Length = 239910 BitCount = 124 ID = 1968
   9.849488 1  730             Tx   d 8 29 00 B5 85 B0 01 21 44  Length = 226244 BitCount = 116 ID = 1840
   9.849728 1  730             Tx   d 8 2A F2 04 00 00 F0 63 FA  Length = 234244 BitCount = 120 ID = 1840
   9.849968 1  730             Tx   d 8 2B 4F F4 00 70 AD F8 10  Length = 234000 BitCount = 120 ID = 1840
   9.850208 1  730             Tx   d 8 2C 00 18 20 8D F8 13 00  Length = 234000 BitCount = 120 ID = 1840
   9.850448 1  730             Tx   d 8 2D 03 20 8D F8 12 00 04  Length = 234000 BitCount = 120 ID = 1840
   9.850682 1  730             Tx   d 8 2E A9 75 48 00 F0 1D FB  Length = 228000 BitCount = 117 ID = 1840
   9.850918 1  730             Tx   d 8 2F 4F F4 80 60 AD F8 10  Length = 230000 BitCount = 118 ID = 1840
   9.851158 1  730             Tx   d 8 20 00 04 20 8D F8 13 00  Length = 234000 BitCount = 120 ID = 1840
   9.851467 1  7B0             Rx   d 8 30 08 00 00 00 00 00 00  Length = 239910 BitCount = 124 ID = 1968
   9.851871 1  730             Tx   d 8 21 04 A9 70 48 00 F0 12  Length = 230244 BitCount = 118 ID = 1840
   9.852103 1  730             Tx   d 8 22 FB 4F F4 E1 30 AA AA  Length = 226244 BitCount = 116 ID = 1840
   9.852703 1  7B0             Rx   d 8 03 7F 36 78 00 00 00 00  Length = 233925 BitCount = 121 ID = 1968
   9.852947 1  7B0             Rx   d 8 02 76 07 00 00 00 00 00  Length = 235925 BitCount = 122 ID = 1968
   9.854501 1  730             Tx   d 8 10 82 36 08 00 90 00 20  Length = 234259 BitCount = 120 ID = 1840
   9.854807 1  7B0             Rx   d 8 30 08 00 00 00 00 00 00  Length = 239925 BitCount = 124 ID = 1968
   9.855131 1  730             Tx   d 8 21 AD F8 04 00 AD F8 06  Length = 232259 BitCount = 119 ID = 1840
   9.855372 1  730             Tx   d 8 22 00 AD F8 08 00 AD F8  Length = 234259 BitCount = 120 ID = 1840
   9.855608 1  730             Tx   d 8 23 0C 00 0C 20 AD F8 0A  Length = 230015 BitCount = 118 ID = 1840
   9.855844 1  730             Tx   d 8 24 00 69 46 67 48 00 F0  Length = 230015 BitCount = 118 ID = 1840
   9.856080 1  730             Tx   d 8 25 8E FC 01 21 65 48 00  Length = 230015 BitCount = 118 ID = 1840
   9.856318 1  730             Tx   d 8 26 F0 16 FD 05 B0 00 BD  Length = 232015 BitCount = 119 ID = 1840
   9.856550 1  730             Tx   d 8 27 70 B5 04 46 0D 46 E1  Length = 226015 BitCount = 116 ID = 1840
   9.856786 1  730             Tx   d 8 28 B2 61 48 00 F0 7D FD  Length = 230015 BitCount = 118 ID = 1840
   9.857080 1  7B0             Rx   d 8 30 08 00 00 00 00 00 00  Length = 239910 BitCount = 124 ID = 1968
   9.857440 1  730             Tx   d 8 29 00 BF 40 21 5E 48 00  Length = 232244 BitCount = 119 ID = 1840
   9.857674 1  730             Tx   d 8 2A F0 E6 FD 01 28 F9 D1  Length = 228244 BitCount = 117 ID = 1840
   9.857908 1  730             Tx   d 8 2B 20 46 70 BD F0 B5 03  Length = 228000 BitCount = 117 ID = 1840
   9.858142 1  730             Tx   d 8 2C 46 0D 46 16 46 00 27  Length = 228000 BitCount = 117 ID = 1840
   9.858376 1  730             Tx   d 8 2D 29 46 0A 2E 03 D0 00  Length = 228000 BitCount = 117 ID = 1840
   9.858608 1  730             Tx   d 8 2E 20 08 70 28 46 F0 BD  Length = 226000 BitCount = 116 ID = 1840
   9.858846 1  730             Tx   d 8 2F 33 B9 30 20 01 F8 01  Length = 232000 BitCount = 119 ID = 1840
   9.859084 1  730             Tx   d 8 20 0B 00 20 08 70 28 46  Length = 232000 BitCount = 119 ID = 1840
   9.859380 1  7B0             Rx   d 8 30 08 00 00 00 00 00 00  Length = 239910 BitCount = 124 ID = 1968
   9.859745 1  730             Tx   d 8 21 F6 E7 00 2B 03 DA 2D  Length = 228244 BitCount = 117 ID = 1840
   9.859981 1  730             Tx   d 8 22 20 01 F8 01 0B AA AA  Length = 230244 BitCount = 118 ID = 1840
   9.860695 1  7B0             Rx   d 8 03 7F 36 78 00 00 00 00  Length = 233910 BitCount = 121 ID = 1968
   9.860939 1  7B0             Rx   d 8 02 76 08 00 00 00 00 00  Length = 235910 BitCount = 122 ID = 1968
   9.862455 1  730             Tx   d 8 10 82 36 09 5B 42 42 F2  Length = 226244 BitCount = 116 ID = 1840
   9.862747 1  7B0             Rx   d 8 30 08 00 00 00 00 00 00  Length = 239910 BitCount = 124 ID = 1968
   9.863145 1  730             Tx   d 8 21 10 72 0D E0 93 FB F2  Length = 230244 BitCount = 118 ID = 1840
   9.863375 1  730             Tx   d 8 22 F4 04 B9 37 B1 04 F1  Length = 224244 BitCount = 115 ID = 1840
   9.863617 1  730             Tx   d 8 23 30 00 01 F8 01 0B 04  Length = 236000 BitCount = 121 ID = 1840
   9.863849 1  730             Tx   d 8 24 FB 12 33 01 27 0A 20  Length = 226000 BitCount = 116 ID = 1840
   9.864085 1  730             Tx   d 8 25 92 FB F0 F2 00 2A EF  Length = 230000 BitCount = 118 ID = 1840
   9.864319 1  730             Tx   d 8 26 DC 00 20 08 70 28 46  Length = 228000 BitCount = 117 ID = 1840
   9.864551 1  730             Tx   d 8 27 D9 E7 0F B4 70 B5 86  Length = 226000 BitCount = 116 ID = 1840
   9.864791 1  730             Tx   d 8 28 B0 06 46 0C A8 01 90  Length = 234000 BitCount = 120 ID = 1840
   9.865101 1  7B0             Rx   d 8 30 08 00 00 00 00 00 00  Length = 239910 BitCount = 124 ID = 1968
   9.865476 1  730             Tx   d 8 29 73 E0 0B 98 00 78 5C  Length = 232259 BitCount = 119 ID = 1840
   9.865708 1  730             Tx   d 8 2A 28 1C D1 0B 98 40 1C  Length = 226259 BitCount = 116 ID = 1840
   9.865942 1  730             Tx   d 8 2B 0B 90 00 78 6E 28 09  Length = 228015 BitCount = 117 ID = 1840
   9.866174 1  730             Tx   d 8 2C D0 72 28 0F D1 0D 21  Length = 226015 BitCount = 116 ID = 1840
   9.866410 1  730             Tx   d 8 2D 30 46 00 F0 2C FD 0B  Length = 230015 BitCount = 118 ID = 1840
   9.866646 1  730             Tx   d 8 2E 98 40 1C 0B 90 0B E0  Length = 230015 BitCount = 118 ID = 1840
   9.866880 1  730             Tx   d 8 2F 0A 21 30 46 00 F0 24  Length = 228015 BitCount = 117 ID = 1840
   9.867116 1  730             Tx   d 8 20 FD 0B 98 40 1C 0B 90  Length = 230015 BitCount = 118 ID = 1840
   9.867426 1  7B0             Rx   d 8 30 08 00 00 00 00 00 00  Length = 239925 BitCount = 124 ID = 1968
   9.867860 1  730             Tx   d 8 21 03 E0 0B 98 40 1C 0B  Length = 234259 BitCount = 120 ID = 1840
   9.868096 1  730             Tx   d 8 22 90 00 BF 4B E0 AA AA  Length = 230259 BitCount = 118 ID = 1840
   9.868688 1  7B0             Rx   d 8 03 7F 36 78 00 00 00 00  Length = 233910 BitCount = 121 ID = 1968
   9.868932 1  7B0             Rx   d 8 02 76 09 00 00 00 00 00  Length = 235910 BitCount = 122 ID = 1968
   9.870469 1  730             Tx   d 8 10 82 36 0A 0B 98 00 78  Length = 230259 BitCount = 118 ID = 1840
   9.870768 1  7B0             Rx   d 8 30 08 00 00 00 00 00 00  Length = 239910 BitCount = 124 ID = 1968
   9.871161 1  730             Tx   d 8 21 25 28 40 D1 0B 98 40  Length = 224259 BitCount = 115 ID = 1840
   9.871397 1  730             Tx   d 8 22 1C 0B 90 00 78 64 28  Length = 230259 BitCount = 118 ID = 1840
   9.871629 1  730             Tx   d 8 23 18 D0 73 28 33 D1 01  Length = 226015 BitCount = 116 ID = 1840
   9.871869 1  730             Tx   d 8 24 98 10 C8 01 90 0B E0  Length = 234015 BitCount = 120 ID = 1840
   9.872103 1  730             Tx   d 8 25 21 78 30 46 00 F0 07  Length = 228015 BitCount = 117 ID = 1840
   9.872341 1  730             Tx   d 8 26 FD 00 BF 40 21 30 46  Length = 232015 BitCount = 119 ID = 1840
   9.872579 1  730             Tx   d 8 27 00 F0 70 FD 00 28 F9  Length = 232015 BitCount = 119 ID = 1840
   9.872817 1  730             Tx   d 8 28 D0 64 1C 20 78 00 28  Length = 232015 BitCount = 119 ID = 1840
   9.873121 1  7B0             Rx   d 8 30 08 00 00 00 00 00 00  Length = 239925 BitCount = 124 ID = 1968
   9.873563 1  730             Tx   d 8 29 F0 D1 0B 98 40 1C 0B  Length = 228259 BitCount = 117 ID = 1840
   9.873801 1  730             Tx   d 8 2A 90 20 E0 01 98 20 C8  Length = 232259 BitCount = 119 ID = 1840
   9.874035 1  730             Tx   d 8 2B 01 90 0A 22 02 A9 28  Length = 228015 BitCount = 117 ID = 1840
   9.874273 1  730             Tx   d 8 2C 46 FF F7 7C FF 02 AC  Length = 232015 BitCount = 119 ID = 1840
   9.874511 1  730             Tx   d 8 2D 0B E0 21 78 30 46 00  Length = 232015 BitCount = 119 ID = 1840
   9.874747 1  730             Tx   d 8 2E F0 EA FC 00 BF 40 21  Length = 230015 BitCount = 118 ID = 1840
   9.874987 1  730             Tx   d 8 2F 30 46 00 F0 53 FD 00  Length = 234015 BitCount = 120 ID = 1840
   9.875223 1  730             Tx   d 8 20 28 F9 D0 64 1C 20 78  Length = 230015 BitCount = 118 ID = 1840
   9.875528 1  7B0             Rx   d 8 30 08 00 00 00 00 00 00  Length = 239910 BitCount = 124 ID = 1968
   9.875954 1  730             Tx   d 8 21 00 28 F0 D1 0B 98 40  Length = 228244 BitCount = 117 ID = 1840
   9.876192 1  730             Tx   d 8 22 1C 0B 90 03 E0 AA AA  Length = 232244 BitCount = 119 ID = 1840
   9.876708 1  7B0             Rx   d 8 03 7F 36 78 00 00 00 00  Length = 233925 BitCount = 121 ID = 1968
   9.876954 1  7B0             Rx   d 8 02 76 0A 00 00 00 00 00  Length = 237910 BitCount = 123 ID = 1968
   9.878444 1  730             Tx   d 8 10 82 36 0B 0B 98 40 1C  Length = 226244 BitCount = 116 ID = 1840
   9.878734 1  7B0             Rx   d 8 30 08 00 00 00 00 00 00  Length = 239910 BitCount = 124 ID = 1968
   9.879174 1  730             Tx   d 8 21 0B 90 00 BF 06 E0 0B  Length = 230244 BitCount = 118 ID = 1840
   9.879411 1  730             Tx   d 8 22 98 10 F8 01 1B 0B 90  Length = 230244 BitCount = 118 ID = 1840
   9.879651 1  730             Tx   d 8 23 30 46 00 F0 CF FC 00  Length = 234000 BitCount = 120 ID = 1840
   9.879887 1  730             Tx   d 8 24 BF 40 21 30 46 00 F0  Length = 230000 BitCount = 118 ID = 1840
   9.880123 1  730             Tx   d 8 25 38 FD 00 28 F9 D0 0B  Length = 230000 BitCount = 118 ID = 1840
   9.880361 1  730             Tx   d 8 26 98 00 78 00 28 87 D1  Length = 232000 BitCount = 119 ID = 1840
   9.880595 1  730             Tx   d 8 27 06 B0 70 BC 5D F8 14  Length = 228000 BitCount = 117 ID = 1840
   9.880839 1  730             Tx   d 8 28 FB 00 00 00 08 01 40  Length = 238000 BitCount = 122 ID = 1840
   9.881141 1  7B0             Rx   d 8 30 08 00 00 00 00 00 00  Length = 239910 BitCount = 124 ID = 1968
   9.881569 1  730             Tx   d 8 29 00 38 01 40 DC 48 00  Length = 234244 BitCount = 120 ID = 1840
   9.881803 1  730             Tx   d 8 2A 68 40 F0 01 00 DA 49  Length = 228244 BitCount = 117 ID = 1840
   9.882033 1  730             Tx   d 8 2B 08 60 08 46 40 68 D9  Length = 224000 BitCount = 115 ID = 1840
   9.882263 1  730             Tx   d 8 2C 49 08 40 D7 49 48 60  Length = 224000 BitCount = 115 ID = 1840
   9.882493 1  730             Tx   d 8 2D 08 46 00 68 D7 49 08  Length = 224000 BitCount = 115 ID = 1840
   9.882723 1  730             Tx   d 8 2E 40 D4 49 08 60 08 46  Length = 224000 BitCount = 115 ID = 1840
   9.882961 1  730             Tx   d 8 2F 00 68 20 F4 80 20 08  Length = 232000 BitCount = 119 ID = 1840
   9.883199 1  730             Tx   d 8 20 60 08 46 40 68 20 F4  Length = 232000 BitCount = 119 ID = 1840
   9.883493 1  7B0             Rx   d 8 30 08 00 00 00 00 00 00  Length = 239910 BitCount = 124 ID = 1968
   9.883857 1  730             Tx   d 8 21 FE 00 48 60 4F F4 1F  Length = 234244 BitCount = 120 ID = 1840
   9.884092 1  730             Tx   d 8 22 00 88 60 70 47 AA AA  Length = 228244 BitCount = 117 ID = 1840
   9.884701 1  7B0             Rx   d 8 03 7F 36 78 00 00 00 00  Length = 233910 BitCount = 121 ID = 1968
   9.884946 1  7B0             Rx   d 8 02 76 0B 00 00 00 00 00  Length = 235910 BitCount = 122 ID = 1968
   9.886460 1  730             Tx   d 8 10 82 36 0C CC 49 09 68  Length = 226244 BitCount = 116 ID = 1840
   9.886754 1  7B0             Rx   d 8 30 08 00 00 00 00 00 00  Length = 239910 BitCount = 124 ID = 1968
   9.887140 1  730             Tx   d 8 21 21 F4 80 31 CA 4A 11  Length = 226244 BitCount = 116 ID = 1840
   9.887376 1  730             Tx   d 8 22 60 11 46 09 68 21 F4  Length = 230244 BitCount = 118 ID = 1840
   9.887610 1  730             Tx   d 8 23 80 21 11 60 B0 F5 80  Length = 228000 BitCount = 117 ID = 1840
   9.887844 1  730             Tx   d 8 24 3F 03 D0 B0 F5 80 2F  Length = 228000 BitCount = 117 ID = 1840
   9.888074 1  730             Tx   d 8 25 0E D1 06 E0 C3 49 09  Length = 224000 BitCount = 115 ID = 1840
   9.888308 1  730             Tx   d 8 26 68 41 F4 80 31 C1 4A  Length = 228000 BitCount = 117 ID = 1840
   9.888546 1  730             Tx   d 8 27 11 60 07 E0 C0 49 09  Length = 232000 BitCount = 119 ID = 1840
   9.888780 1  730             Tx   d 8 28 68 41 F4 A0 21 BE 4A  Length = 228000 BitCount = 117 ID = 1840
   9.889080 1  7B0             Rx   d 8 30 08 00 00 00 00 00 00  Length = 239910 BitCount = 124 ID = 1968
   9.889467 1  730             Tx   d 8 29 11 60 00 E0 00 BF 00  Length = 232244 BitCount = 119 ID = 1840
   9.889701 1  730             Tx   d 8 2A BF 70 47 10 B5 01 46  Length = 228244 BitCount = 117 ID = 1840
   9.889943 1  730             Tx   d 8 2B 00 22 00 23 00 20 4A  Length = 236000 BitCount = 121 ID = 1840
   9.890175 1  730             Tx   d 8 2C 11 01 2A 02 D1 B7 4C  Length = 226000 BitCount = 116 ID = 1840
   9.890411 1  730             Tx   d 8 2D 23 68 06 E0 02 2A 02  Length = 230000 BitCount = 118 ID = 1840
   9.890641 1  730             Tx   d 8 2E D1 B4 4C 23 6A 01 E0  Length = 224000 BitCount = 115 ID = 1840
   9.890877 1  730             Tx   d 8 2F B3 4C 63 6A 01 F0 1F  Length = 230000 BitCount = 118 ID = 1840
   9.891111 1  730             Tx   d 8 20 02 01 24 94 40 1C 42  Length = 228000 BitCount = 117 ID = 1840
   9.891407 1  7B0             Rx   d 8 30 08 00 00 00 00 00 00  Length = 239910 BitCount = 124 ID = 1968
   9.891753 1  730             Tx   d 8 21 01 D0 01 20 00 E0 00  Length = 234244 BitCount = 120 ID = 1840
   9.891983 1  730             Tx   d 8 22 20 10 BD 70 B5 AA AA  Length = 224244 BitCount = 115 ID = 1840
   9.892695 1  7B0             Rx   d 8 03 7F 36 78 00 00 00 00  Length = 233925 BitCount = 121 ID = 1968
   9.892939 1  7B0             Rx   d 8 02 76 0C 00 00 00 00 00  Length = 235925 BitCount = 122 ID = 1968
   9.894466 1  730             Tx   d 8 10 82 36 0D 00 24 00 25  Length = 232259 BitCount = 119 ID = 1840
   9.894774 1  7B0             Rx   d 8 30 08 00 00 00 00 00 00  Length = 239925 BitCount = 124 ID = 1968
   9.896356 1  730             Tx   d 8 21 00 26 00 BF 31 20 FF  Length = 234259 BitCount = 120 ID = 1840
   9.896592 1  730             Tx   d 8 22 F7 DC FF 06 46 64 1C  Length = 230015 BitCount = 118 ID = 1840
   9.896826 1  730             Tx   d 8 23 B4 F5 A0 6F 01 D0 00  Length = 228015 BitCount = 117 ID = 1840
   9.897060 1  730             Tx   d 8 24 2E F5 D0 31 20 FF F7  Length = 228015 BitCount = 117 ID = 1840
   9.897292 1  730             Tx   d 8 25 D2 FF 08 B1 01 25 00  Length = 226015 BitCount = 116 ID = 1840
   9.897526 1  730             Tx   d 8 26 E0 00 25 28 46 70 BD  Length = 228015 BitCount = 117 ID = 1840
   9.897766 1  730             Tx   d 8 27 01 46 00 20 A0 4A 10  Length = 234015 BitCount = 120 ID = 1840
   9.898008 1  730             Tx   d 8 28 68 20 F0 F8 00 40 EA  Length = 236015 BitCount = 121 ID = 1840
   9.898316 1  7B0             Rx   d 8 30 08 00 00 00 00 00 00  Length = 239925 BitCount = 124 ID = 1968
   9.898748 1  730             Tx   d 8 29 C1 00 10 60 70 47 9F  Length = 234259 BitCount = 120 ID = 1840
   9.898980 1  730             Tx   d 8 2A 49 08 60 70 47 02 46  Length = 226259 BitCount = 116 ID = 1840
   9.899216 1  730             Tx   d 8 2B 00 20 99 4B 58 68 20  Length = 230015 BitCount = 118 ID = 1840
   9.899452 1  730             Tx   d 8 2C F4 7C 10 42 EA 01 03  Length = 230015 BitCount = 118 ID = 1840
   9.899684 1  730             Tx   d 8 2D 18 43 96 4B 58 60 70  Length = 226015 BitCount = 116 ID = 1840
   9.899914 1  730             Tx   d 8 2E 47 97 49 08 66 70 47  Length = 224015 BitCount = 115 ID = 1840
   9.900152 1  730             Tx   d 8 2F 01 46 00 20 92 4A 50  Length = 232015 BitCount = 119 ID = 1840
   9.900394 1  730             Tx   d 8 20 68 20 F0 03 00 08 43  Length = 236015 BitCount = 121 ID = 1840
   9.900696 1  7B0             Rx   d 8 30 08 00 00 00 00 00 00  Length = 239910 BitCount = 124 ID = 1968
   9.901033 1  730             Tx   d 8 21 50 60 70 47 8E 48 40  Length = 230244 BitCount = 118 ID = 1840
   9.901269 1  730             Tx   d 8 22 68 00 F0 0C 00 AA AA  Length = 230244 BitCount = 118 ID = 1840
   9.901689 1  7B0             Rx   d 8 03 7F 36 78 00 00 00 00  Length = 233910 BitCount = 121 ID = 1968
   9.901937 1  7B0             Rx   d 8 02 76 0D 00 00 00 00 00  Length = 239910 BitCount = 124 ID = 1968
   9.903443 1  730             Tx   d 8 10 82 36 0E 70 47 01 46  Length = 228244 BitCount = 117 ID = 1840
   9.903741 1  7B0             Rx   d 8 30 08 00 00 00 00 00 00  Length = 239910 BitCount = 124 ID = 1968
   9.904159 1  730             Tx   d 8 21 00 20 8B 4A 50 68 20  Length = 232244 BitCount = 119 ID = 1840
   9.904395 1  730             Tx   d 8 22 F0 F0 00 08 43 50 60  Length = 230244 BitCount = 118 ID = 1840
   9.904631 1  730             Tx   d 8 23 70 47 01 46 00 20 86  Length = 230000 BitCount = 118 ID = 1840
   9.904869 1  730             Tx   d 8 24 4A 50 68 20 F4 E0 60  Length = 232000 BitCount = 119 ID = 1840
   9.905105 1  730             Tx   d 8 25 08 43 50 60 70 47 01  Length = 230000 BitCount = 118 ID = 1840
   9.905341 1  730             Tx   d 8 26 46 00 20 82 4A 50 68  Length = 230000 BitCount = 118 ID = 1840
   9.905579 1  730             Tx   d 8 27 20 F4 60 50 40 EA C1  Length = 232000 BitCount = 119 ID = 1840
   9.905815 1  730             Tx   d 8 28 00 50 60 70 47 29 B1  Length = 230000 BitCount = 118 ID = 1840
   9.906122 1  7B0             Rx   d 8 30 08 00 00 00 00 00 00  Length = 239910 BitCount = 124 ID = 1968
   9.906560 1  730             Tx   d 8 29 7D 4A 52 7A 02 43 7C  Length = 228244 BitCount = 117 ID = 1840
   9.906790 1  730             Tx   d 8 2A 4B 5A 72 06 E0 7A 4A  Length = 224244 BitCount = 115 ID = 1840
   9.907016 1  730             Tx   d 8 2B 52 7A C3 43 DB B2 1A  Length = 220000 BitCount = 113 ID = 1840
   9.907248 1  730             Tx   d 8 2C 40 78 4B 5A 72 70 47  Length = 226000 BitCount = 116 ID = 1840
   9.907484 1  730             Tx   d 8 2D 7A 49 08 60 70 47 01  Length = 230000 BitCount = 118 ID = 1840
   9.907718 1  730             Tx   d 8 2E 46 00 20 74 4A 50 68  Length = 228000 BitCount = 117 ID = 1840
   9.907956 1  730             Tx   d 8 2F 20 F4 40 40 08 43 50  Length = 232000 BitCount = 119 ID = 1840
   9.908192 1  730             Tx   d 8 20 60 70 47 00 21 75 4A  Length = 230000 BitCount = 118 ID = 1840
   9.908502 1  7B0             Rx   d 8 30 08 00 00 00 00 00 00  Length = 239910 BitCount = 124 ID = 1968
   9.908940 1  730             Tx   d 8 21 11 70 6F 4A 82 F8 20  Length = 232244 BitCount = 119 ID = 1840
   9.909173 1  730             Tx   d 8 22 10 01 28 02 D0 AA AA  Length = 226244 BitCount = 116 ID = 1840
   9.909682 1  7B0             Rx   d 8 03 7F 36 78 00 00 00 00  Length = 233910 BitCount = 121 ID = 1968
   9.909926 1  7B0             Rx   d 8 02 76 0E 00 00 00 00 00  Length = 235910 BitCount = 122 ID = 1968
   9.911411 1  730             Tx   d 8 10 82 36 0F 04 28 08 D1  Length = 232244 BitCount = 119 ID = 1840
   9.911703 1  7B0             Rx   d 8 30 08 00 00 00 00 00 00  Length = 239910 BitCount = 124 ID = 1968
   9.912139 1  730             Tx   d 8 21 03 E0 01 21 6F 4A 11  Length = 228244 BitCount = 117 ID = 1840
   9.912373 1  730             Tx   d 8 22 70 04 E0 05 21 6D 4A  Length = 228244 BitCount = 117 ID = 1840
   9.912611 1  730             Tx   d 8 23 11 70 00 E0 00 BF 00  Length = 232000 BitCount = 119 ID = 1840
   9.912843 1  730             Tx   d 8 24 BF 70 47 6B 49 08 60  Length = 226000 BitCount = 116 ID = 1840
   9.913077 1  730             Tx   d 8 25 70 47 64 49 09 6A 01  Length = 228000 BitCount = 117 ID = 1840
   9.913307 1  730             Tx   d 8 26 43 62 4A 11 62 70 47  Length = 224000 BitCount = 115 ID = 1840
   9.913537 1  730             Tx   d 8 27 67 49 44 39 08 60 70  Length = 224000 BitCount = 115 ID = 1840
   9.913771 1  730             Tx   d 8 28 47 30 B5 00 21 00 22  Length = 228000 BitCount = 117 ID = 1840
   9.914061 1  7B0             Rx   d 8 30 08 00 00 00 00 00 00  Length = 239910 BitCount = 124 ID = 1968
   9.914443 1  730             Tx   d 8 29 00 24 00 23 5C 4D 6D  Length = 230244 BitCount = 118 ID = 1840
   9.914680 1  730             Tx   d 8 2A 68 05 F0 0C 01 21 B1  Length = 230244 BitCount = 118 ID = 1840
   9.914914 1  730             Tx   d 8 2B 04 29 05 D0 08 29 23  Length = 228000 BitCount = 117 ID = 1840
   9.915148 1  730             Tx   d 8 2C D1 05 E0 5E 4D 05 60  Length = 228000 BitCount = 117 ID = 1840
   9.915382 1  730             Tx   d 8 2D 22 E0 5D 4D 05 60 1F  Length = 228000 BitCount = 117 ID = 1840
   9.915614 1  730             Tx   d 8 2E E0 54 4D 6D 68 05 F4  Length = 226000 BitCount = 116 ID = 1840
   9.915844 1  730             Tx   d 8 2F 70 12 52 4D 6D 68 05  Length = 224000 BitCount = 115 ID = 1840
   9.916080 1  730             Tx   d 8 20 F4 80 34 02 25 05 EB  Length = 230000 BitCount = 118 ID = 1840
   9.916388 1  7B0             Rx   d 8 30 08 00 00 00 00 00 00  Length = 239910 BitCount = 124 ID = 1968
   9.916736 1  730             Tx   d 8 21 92 42 1C B9 56 4D 55  Length = 220244 BitCount = 113 ID = 1840
   9.916970 1  730             Tx   d 8 22 43 05 60 0B E0 AA AA  Length = 228244 BitCount = 117 ID = 1840
   9.917702 1  7B0             Rx   d 8 03 7F 36 78 00 00 00 00  Length = 233925 BitCount = 121 ID = 1968
   9.917950 1  7B0             Rx   d 8 02 76 0F 00 00 00 00 00  Length = 239925 BitCount = 124 ID = 1968
   9.919434 1  730             Tx   d 8 10 82 36 10 4C 4D 6D 68  Length = 226259 BitCount = 116 ID = 1840
   9.919728 1  7B0             Rx   d 8 30 08 00 00 00 00 00 00  Length = 239925 BitCount = 124 ID = 1968
   9.920149 1  730             Tx   d 8 21 15 F4 00 3F 03 D0 52  Length = 234259 BitCount = 120 ID = 1840
   9.920383 1  730             Tx   d 8 22 4D 55 43 05 60 02 E0  Length = 228259 BitCount = 117 ID = 1840
   9.920617 1  730             Tx   d 8 23 4F 4D 55 43 05 60 02  Length = 228015 BitCount = 117 ID = 1840
   9.920855 1  730             Tx   d 8 24 E0 4D 4D 05 60 00 BF  Length = 232015 BitCount = 119 ID = 1840
   9.921087 1  730             Tx   d 8 25 00 BF 44 4D 6D 68 05  Length = 226015 BitCount = 116 ID = 1840
   9.921317 1  730             Tx   d 8 26 F0 F0 01 09 09 4A 4D  Length = 224015 BitCount = 115 ID = 1840
   9.921547 1  730             Tx   d 8 27 6B 5C 05 68 DD 40 45  Length = 224015 BitCount = 115 ID = 1840
   9.921781 1  730             Tx   d 8 28 60 3F 4D 6D 68 05 F4  Length = 228015 BitCount = 117 ID = 1840
   9.922081 1  7B0             Rx   d 8 30 08 00 00 00 00 00 00  Length = 239910 BitCount = 124 ID = 1968
   9.922441 1  730             Tx   d 8 29 E0 61 09 0A 45 4D 6B  Length = 222244 BitCount = 114 ID = 1840
   9.922673 1  730             Tx   d 8 2A 5C 45 68 DD 40 85 60  Length = 226244 BitCount = 116 ID = 1840
   9.922905 1  730             Tx   d 8 2B 3A 4D 6D 68 05 F4 60  Length = 226000 BitCount = 116 ID = 1840
   9.923133 1  730             Tx   d 8 2C 51 C9 0A 40 4D 6B 5C  Length = 222000 BitCount = 114 ID = 1840
   9.923363 1  730             Tx   d 8 2D 45 68 DD 40 C5 60 35  Length = 224000 BitCount = 115 ID = 1840
   9.923599 1  730             Tx   d 8 2E 4D 6D 68 05 F4 40 41  Length = 230000 BitCount = 118 ID = 1840
   9.923827 1  730             Tx   d 8 2F 89 0B 3C 4D 6B 5C C5  Length = 222000 BitCount = 114 ID = 1840
   9.924065 1  730             Tx   d 8 20 68 B5 FB F3 F5 05 61  Length = 232000 BitCount = 119 ID = 1840
   9.924353 1  7B0             Rx   d 8 30 08 00 00 00 00 00 00  Length = 239910 BitCount = 124 ID = 1968
   9.924732 1  730             Tx   d 8 21 30 BD 29 B1 2E 4A 52  Length = 224244 BitCount = 115 ID = 1840
   9.924960 1  730             Tx   d 8 22 69 02 43 2D 4B AA AA  Length = 222244 BitCount = 114 ID = 1840
   9.925696 1  7B0             Rx   d 8 03 7F 36 78 00 00 00 00  Length = 233910 BitCount = 121 ID = 1968
   9.925938 1  7B0             Rx   d 8 02 76 10 00 00 00 00 00  Length = 233910 BitCount = 121 ID = 1968
   9.927440 1  730             Tx   d 8 10 82 36 11 5A 61 04 E0  Length = 228259 BitCount = 117 ID = 1840
   9.927748 1  7B0             Rx   d 8 30 08 00 00 00 00 00 00  Length = 239910 BitCount = 124 ID = 1968
   9.928108 1  730             Tx   d 8 21 2B 4A 52 69 82 43 2A  Length = 224259 BitCount = 115 ID = 1840
   9.928337 1  730             Tx   d 8 22 4B 5A 61 70 47 29 B1  Length = 222259 BitCount = 114 ID = 1840
   9.928565 1  730             Tx   d 8 23 28 4A 92 69 02 43 26  Length = 222015 BitCount = 114 ID = 1840
   9.928795 1  730             Tx   d 8 24 4B 9A 61 04 E0 25 4A  Length = 224015 BitCount = 115 ID = 1840
   9.929023 1  730             Tx   d 8 25 92 69 82 43 23 4B 9A  Length = 222015 BitCount = 114 ID = 1840
   9.929253 1  730             Tx   d 8 26 61 70 47 29 B1 21 4A  Length = 224015 BitCount = 115 ID = 1840
   9.929485 1  730             Tx   d 8 27 D2 69 02 43 20 4B DA  Length = 226015 BitCount = 116 ID = 1840
   9.929717 1  730             Tx   d 8 28 61 04 E0 1E 4A D2 69  Length = 226015 BitCount = 116 ID = 1840
   9.930021 1  7B0             Rx   d 8 30 08 00 00 00 00 00 00  Length = 239925 BitCount = 124 ID = 1968
   9.930457 1  730             Tx   d 8 29 82 43 1D 4B DA 61 70  Length = 224259 BitCount = 115 ID = 1840
   9.930685 1  730             Tx   d 8 2A 47 29 B1 1B 4A D2 68  Length = 222259 BitCount = 114 ID = 1840
   9.930917 1  730             Tx   d 8 2B 02 43 19 4B DA 60 04  Length = 226015 BitCount = 116 ID = 1840
   9.931149 1  730             Tx   d 8 2C E0 18 4A D2 68 82 43  Length = 226015 BitCount = 116 ID = 1840
   9.931379 1  730             Tx   d 8 2D 16 4B DA 60 70 47 29  Length = 224015 BitCount = 115 ID = 1840
   9.931607 1  730             Tx   d 8 2E B1 14 4A 12 69 02 43  Length = 222015 BitCount = 114 ID = 1840
   9.931837 1  730             Tx   d 8 2F 13 4B 1A 61 04 E0 11  Length = 224015 BitCount = 115 ID = 1840
   9.932071 1  730             Tx   d 8 20 4A 12 69 82 43 10 4B  Length = 228015 BitCount = 117 ID = 1840
   9.932373 1  7B0             Rx   d 8 30 08 00 00 00 00 00 00  Length = 239910 BitCount = 124 ID = 1968
   9.932728 1  730             Tx   d 8 21 1A 61 70 47 14 49 40  Length = 224244 BitCount = 115 ID = 1840
   9.932958 1  730             Tx   d 8 22 39 08 60 70 47 AA AA  Length = 224244 BitCount = 115 ID = 1840
   9.933690 1  7B0             Rx   d 8 03 7F 36 78 00 00 00 00  Length = 233910 BitCount = 121 ID = 1968
   9.933934 1  7B0             Rx   d 8 02 76 11 00 00 00 00 00  Length = 235910 BitCount = 122 ID = 1968
   9.935436 1  730             Tx   d 8 10 82 36 12 0F 49 C8 64  Length = 226244 BitCount = 116 ID = 1840
   9.935742 1  7B0             Rx   d 8 30 08 00 00 00 00 00 00  Length = 239910 BitCount = 124 ID = 1968
   9.936136 1  730             Tx   d 8 21 70 47 0B 49 C8 71 70  Length = 224244 BitCount = 115 ID = 1840
   9.936368 1  730             Tx   d 8 22 47 09 48 40 6A 40 F0  Length = 226244 BitCount = 116 ID = 1840
   9.936598 1  730             Tx   d 8 23 80 70 07 49 48 62 70  Length = 224000 BitCount = 115 ID = 1840
   9.936834 1  730             Tx   d 8 24 47 01 46 00 20 05 4A  Length = 230000 BitCount = 118 ID = 1840
   9.937070 1  730             Tx   d 8 25 92 68 0A 42 01 D0 01  Length = 230000 BitCount = 118 ID = 1840
   9.937310 1  730             Tx   d 8 26 20 00 E0 00 20 70 47  Length = 234000 BitCount = 120 ID = 1840
   9.937542 1  730             Tx   d 8 27 01 49 88 72 70 47 00  Length = 226000 BitCount = 116 ID = 1840
   9.937788 1  730             Tx   d 8 28 10 02 40 00 00 FF F8  Length = 240000 BitCount = 123 ID = 1840
   9.938095 1  7B0             Rx   d 8 30 08 00 00 00 00 00 00  Length = 239910 BitCount = 124 ID = 1968
   9.938561 1  730             Tx   d 8 29 FF FF F6 FE 00 00 42  Length = 236259 BitCount = 121 ID = 1840
   9.938799 1  730             Tx   d 8 2A 42 D8 00 42 42 20 10  Length = 232259 BitCount = 119 ID = 1840
   9.939037 1  730             Tx   d 8 2B 02 40 80 04 42 42 00  Length = 232015 BitCount = 119 ID = 1840
   9.939275 1  730             Tx   d 8 2C 12 7A 00 00 09 3D 00  Length = 232015 BitCount = 119 ID = 1840
   9.939521 1  730             Tx   d 8 2D 00 00 00 20 10 00 00  Length = 240015 BitCount = 123 ID = 1840
   9.939753 1  730             Tx   d 8 2E 20 10 B5 04 46 CA 48  Length = 226015 BitCount = 116 ID = 1840
   9.939989 1  730             Tx   d 8 2F 84 42 08 D1 01 21 04  Length = 230015 BitCount = 118 ID = 1840
   9.940231 1  730             Tx   d 8 20 20 FF F7 A9 FF 00 21  Length = 236015 BitCount = 121 ID = 1840
   9.940529 1  7B0             Rx   d 8 30 08 00 00 00 00 00 00  Length = 239925 BitCount = 124 ID = 1968
   9.940943 1  730             Tx   d 8 21 04 20 FF F7 A5 FF 46  Length = 232259 BitCount = 119 ID = 1840
   9.941172 1  730             Tx   d 8 22 E0 C5 48 84 42 AA AA  Length = 222259 BitCount = 114 ID = 1840
   9.941683 1  7B0             Rx   d 8 03 7F 36 78 00 00 00 00  Length = 233910 BitCount = 121 ID = 1968
   9.941927 1  7B0             Rx   d 8 02 76 12 00 00 00 00 00  Length = 235910 BitCount = 122 ID = 1968
   9.943442 1  730             Tx   d 8 10 82 36 13 08 D1 01 21  Length = 226259 BitCount = 116 ID = 1840
   9.943736 1  7B0             Rx   d 8 30 08 00 00 00 00 00 00  Length = 239910 BitCount = 124 ID = 1968
   9.944132 1  730             Tx   d 8 21 08 20 FF F7 9D FF 00  Length = 232259 BitCount = 119 ID = 1840
   9.944368 1  730             Tx   d 8 22 21 08 20 FF F7 99 FF  Length = 230259 BitCount = 118 ID = 1840
   9.944602 1  730             Tx   d 8 23 3A E0 C0 48 84 42 08  Length = 228015 BitCount = 117 ID = 1840
   9.944838 1  730             Tx   d 8 24 D1 01 21 10 20 FF F7  Length = 230015 BitCount = 118 ID = 1840
   9.945080 1  730             Tx   d 8 25 91 FF 00 21 10 20 FF  Length = 236015 BitCount = 121 ID = 1840
   9.945312 1  730             Tx   d 8 26 F7 8D FF 2E E0 BB 48  Length = 226015 BitCount = 116 ID = 1840
   9.945546 1  730             Tx   d 8 27 84 42 08 D1 01 21 20  Length = 228015 BitCount = 117 ID = 1840
   9.945786 1  730             Tx   d 8 28 20 FF F7 85 FF 00 21  Length = 234015 BitCount = 120 ID = 1840
   9.946088 1  7B0             Rx   d 8 30 08 00 00 00 00 00 00  Length = 239925 BitCount = 124 ID = 1968
   9.946538 1  730             Tx   d 8 29 20 20 FF F7 81 FF 22  Length = 232259 BitCount = 119 ID = 1840
   9.946769 1  730             Tx   d 8 2A E0 B6 48 84 42 08 D1  Length = 224259 BitCount = 115 ID = 1840
   9.947005 1  730             Tx   d 8 2B 01 21 40 20 FF F7 79  Length = 230015 BitCount = 118 ID = 1840
   9.947249 1  730             Tx   d 8 2C FF 00 21 40 20 FF F7  Length = 238015 BitCount = 122 ID = 1840
   9.947481 1  730             Tx   d 8 2D 75 FF 16 E0 B1 48 84  Length = 226015 BitCount = 116 ID = 1840
   9.947715 1  730             Tx   d 8 2E 42 08 D1 01 21 80 20  Length = 228015 BitCount = 117 ID = 1840
   9.947955 1  730             Tx   d 8 2F FF F7 6D FF 00 21 80  Length = 234015 BitCount = 120 ID = 1840
   9.948193 1  730             Tx   d 8 20 20 FF F7 69 FF 0A E0  Length = 232015 BitCount = 119 ID = 1840
   9.948495 1  7B0             Rx   d 8 30 08 00 00 00 00 00 00  Length = 239910 BitCount = 124 ID = 1968
   9.948907 1  730             Tx   d 8 21 AC 48 84 42 07 D1 01  Length = 226244 BitCount = 116 ID = 1840
   9.949141 1  730             Tx   d 8 22 21 80 15 FF F7 AA AA  Length = 228244 BitCount = 117 ID = 1840
   9.949703 1  7B0             Rx   d 8 03 7F 36 78 00 00 00 00  Length = 233925 BitCount = 121 ID = 1968
   9.949945 1  7B0             Rx   d 8 02 76 13 00 00 00 00 00  Length = 233910 BitCount = 121 ID = 1968
   9.951443 1  730             Tx   d 8 10 82 36 14 61 FF 00 21  Length = 228244 BitCount = 117 ID = 1840
   9.951755 1  7B0             Rx   d 8 30 08 00 00 00 00 00 00  Length = 239910 BitCount = 124 ID = 1968
   9.952079 1  730             Tx   d 8 21 A0 15 FF F7 5D FF 10  Length = 228244 BitCount = 117 ID = 1840
   9.952310 1  730             Tx   d 8 22 BD 10 B5 01 21 08 46  Length = 224244 BitCount = 115 ID = 1840
   9.952550 1  730             Tx   d 8 23 FF F7 57 FF 00 21 01  Length = 234000 BitCount = 120 ID = 1840
   9.952786 1  730             Tx   d 8 24 20 FF F7 53 FF 10 BD  Length = 230000 BitCount = 118 ID = 1840
   9.953022 1  730             Tx   d 8 25 2D E9 F0 41 02 46 00  Length = 230000 BitCount = 118 ID = 1840
   9.953264 1  730             Tx   d 8 26 25 00 26 00 20 00 23  Length = 236000 BitCount = 121 ID = 1840
   9.953502 1  730             Tx   d 8 27 00 24 00 27 91 F8 03  Length = 232000 BitCount = 119 ID = 1840
   9.953740 1  730             Tx   d 8 28 C0 0C F0 0F 05 91 F8  Length = 232000 BitCount = 119 ID = 1840
   9.954028 1  7B0             Rx   d 8 30 08 00 00 00 00 00 00  Length = 239910 BitCount = 124 ID = 1968
   9.954432 1  730             Tx   d 8 29 03 C0 1C F0 10 0F 03  Length = 230244 BitCount = 118 ID = 1840
   9.954664 1  730             Tx   d 8 2A D0 91 F8 02 C0 4C EA  Length = 226244 BitCount = 116 ID = 1840
   9.954902 1  730             Tx   d 8 2B 05 05 B1 F8 00 C0 1C  Length = 232000 BitCount = 119 ID = 1840
   9.955134 1  730             Tx   d 8 2C F0 FF 0F 31 D0 14 68  Length = 226000 BitCount = 116 ID = 1840
   9.955376 1  730             Tx   d 8 2D 00 20 2B E0 4F F0 01  Length = 236000 BitCount = 121 ID = 1840
   9.955612 1  730             Tx   d 8 2E 0C 0C FA 00 F3 B1 F8  Length = 230000 BitCount = 118 ID = 1840
   9.955852 1  730             Tx   d 8 2F 00 C0 0C EA 03 06 9E  Length = 234000 BitCount = 120 ID = 1840
   9.956090 1  730             Tx   d 8 20 42 20 D1 83 00 4F F0  Length = 232000 BitCount = 119 ID = 1840
   9.956380 1  7B0             Rx   d 8 30 08 00 00 00 00 00 00  Length = 239910 BitCount = 124 ID = 1968
   9.956691 1  730             Tx   d 8 21 0F 0C 0C FA 03 F7 BC  Length = 230259 BitCount = 118 ID = 1840
   9.956925 1  730             Tx   d 8 22 43 05 FA 03 FC AA AA  Length = 228259 BitCount = 117 ID = 1840
   9.957697 1  7B0             Rx   d 8 03 7F 36 78 00 00 00 00  Length = 233910 BitCount = 121 ID = 1968
   9.957941 1  7B0             Rx   d 8 02 76 14 00 00 00 00 00  Length = 235910 BitCount = 122 ID = 1968
   9.959383 1  730             Tx   d 8 10 82 36 15 4C EA 04 04  Length = 226244 BitCount = 116 ID = 1840
   9.959689 1  7B0             Rx   d 8 30 08 00 00 00 00 00 00  Length = 239910 BitCount = 124 ID = 1968
   9.960087 1  730             Tx   d 8 21 91 F8 03 C0 BC F1 28  Length = 226244 BitCount = 116 ID = 1840
   9.960327 1  730             Tx   d 8 22 0F 06 D1 4F F0 01 0C  Length = 234244 BitCount = 120 ID = 1840
   9.960563 1  730             Tx   d 8 23 0C FA 00 FC C2 F8 14  Length = 230000 BitCount = 118 ID = 1840
   9.960801 1  730             Tx   d 8 24 C0 0A E0 91 F8 03 C0  Length = 232000 BitCount = 119 ID = 1840
   9.961031 1  730             Tx   d 8 25 BC F1 48 0F 05 D1 4F  Length = 224000 BitCount = 115 ID = 1840
   9.961271 1  730             Tx   d 8 26 F0 01 0C 0C FA 00 FC  Length = 234000 BitCount = 120 ID = 1840
   9.961511 1  730             Tx   d 8 27 C2 F8 10 C0 40 1C 08  Length = 234000 BitCount = 120 ID = 1840
   9.961745 1  730             Tx   d 8 28 28 D1 D3 14 60 B1 F8  Length = 228000 BitCount = 117 ID = 1840
   9.962048 1  7B0             Rx   d 8 30 08 00 00 00 00 00 00  Length = 239910 BitCount = 124 ID = 1968
   9.962390 1  730             Tx   d 8 29 00 C0 BC F1 FF 0F 34  Length = 226244 BitCount = 116 ID = 1840
   9.962624 1  730             Tx   d 8 2A DD 54 68 00 20 2E E0  Length = 228244 BitCount = 117 ID = 1840
   9.962860 1  730             Tx   d 8 2B 00 F1 08 0C 4F F0 01  Length = 230000 BitCount = 118 ID = 1840
   9.963096 1  730             Tx   d 8 2C 08 08 FA 0C F3 B1 F8  Length = 230000 BitCount = 118 ID = 1840
   9.963334 1  730             Tx   d 8 2D 00 C0 0C EA 03 06 9E  Length = 232000 BitCount = 119 ID = 1840
   9.963566 1  730             Tx   d 8 2E 42 21 D1 83 00 4F F0  Length = 226000 BitCount = 116 ID = 1840
   9.963800 1  730             Tx   d 8 2F 0F 0C 0C FA 03 F7 BC  Length = 228000 BitCount = 117 ID = 1840
   9.964038 1  730             Tx   d 8 20 43 05 FA 03 FC 4C EA  Length = 232000 BitCount = 119 ID = 1840
   9.964348 1  7B0             Rx   d 8 30 08 00 00 00 00 00 00  Length = 239910 BitCount = 124 ID = 1968
   9.964684 1  730             Tx   d 8 21 04 04 91 F8 03 C0 BC  Length = 232244 BitCount = 119 ID = 1840
   9.964917 1  730             Tx   d 8 22 F1 28 0F 05 D1 AA AA  Length = 226244 BitCount = 116 ID = 1840
   9.965690 1  7B0             Rx   d 8 03 7F 36 78 00 00 00 00  Length = 233925 BitCount = 121 ID = 1968
   9.965933 1  7B0             Rx   d 8 02 76 15 00 00 00 00 00  Length = 233925 BitCount = 121 ID = 1968
   9.967395 1  730             Tx   d 8 10 82 36 16 00 F1 08 0C  Length = 228259 BitCount = 117 ID = 1840
   9.967683 1  7B0             Rx   d 8 30 08 00 00 00 00 00 00  Length = 239910 BitCount = 124 ID = 1968
   9.968097 1  730             Tx   d 8 21 08 FA 0C F8 C2 F8 14  Length = 232244 BitCount = 119 ID = 1840
   9.968331 1  730             Tx   d 8 22 80 91 F8 03 C0 BC F1  Length = 228244 BitCount = 117 ID = 1840
   9.968567 1  730             Tx   d 8 23 48 0F 07 D1 00 F1 08  Length = 230000 BitCount = 118 ID = 1840
   9.968805 1  730             Tx   d 8 24 0C 4F F0 01 08 08 FA  Length = 232000 BitCount = 119 ID = 1840
   9.969043 1  730             Tx   d 8 25 0C F8 C2 F8 10 80 40  Length = 232000 BitCount = 119 ID = 1840
   9.969275 1  730             Tx   d 8 26 1C 08 28 CE D3 54 60  Length = 226000 BitCount = 116 ID = 1840
   9.969507 1  730             Tx   d 8 27 BD E8 F0 81 4F F6 FF  Length = 226000 BitCount = 116 ID = 1840
   9.969741 1  730             Tx   d 8 28 71 01 80 02 21 81 70  Length = 228000 BitCount = 117 ID = 1840
   9.970041 1  7B0             Rx   d 8 30 08 00 00 00 00 00 00  Length = 239910 BitCount = 124 ID = 1968
   9.970422 1  730             Tx   d 8 29 04 21 C1 70 70 47 02  Length = 230244 BitCount = 118 ID = 1840
   9.970656 1  730             Tx   d 8 2A 46 00 20 93 68 0B 42  Length = 228244 BitCount = 117 ID = 1840
   9.970898 1  730             Tx   d 8 2B 01 D0 01 20 00 E0 00  Length = 236000 BitCount = 121 ID = 1840
   9.971130 1  730             Tx   d 8 2C 20 70 47 01 46 88 68  Length = 226000 BitCount = 116 ID = 1840
   9.971366 1  730             Tx   d 8 2D 80 B2 70 47 02 46 00  Length = 230000 BitCount = 118 ID = 1840
   9.971600 1  730             Tx   d 8 2E 20 D3 68 0B 42 01 D0  Length = 228000 BitCount = 117 ID = 1840
   9.971844 1  730             Tx   d 8 2F 01 20 00 E0 00 20 70  Length = 238000 BitCount = 122 ID = 1840
   9.972076 1  730             Tx   d 8 20 47 01 46 C8 68 80 B2  Length = 226000 BitCount = 116 ID = 1840
   9.972368 1  7B0             Rx   d 8 30 08 00 00 00 00 00 00  Length = 239910 BitCount = 124 ID = 1968
   9.972692 1  730             Tx   d 8 21 70 47 01 61 70 47 41  Length = 230244 BitCount = 118 ID = 1840
   9.972922 1  730             Tx   d 8 22 61 70 47 0A B1 AA AA  Length = 224244 BitCount = 115 ID = 1840
   9.973682 1  7B0             Rx   d 8 03 7F 36 78 00 00 00 00  Length = 233910 BitCount = 121 ID = 1968
   9.973926 1  7B0             Rx   d 8 02 76 16 00 00 00 00 00  Length = 235910 BitCount = 122 ID = 1968
   9.975402 1  730             Tx   d 8 10 82 36 17 01 61 00 E0  Length = 230244 BitCount = 118 ID = 1840
   9.975702 1  7B0             Rx   d 8 30 08 00 00 00 00 00 00  Length = 239910 BitCount = 124 ID = 1968
   9.976135 1  730             Tx   d 8 21 41 61 70 47 C1 60 70  Length = 230244 BitCount = 118 ID = 1840
   9.976369 1  730             Tx   d 8 22 47 4F F4 80 32 0A 43  Length = 228244 BitCount = 117 ID = 1840
   9.976605 1  730             Tx   d 8 23 82 61 81 61 82 61 82  Length = 230000 BitCount = 118 ID = 1840
   9.976837 1  730             Tx   d 8 24 69 82 69 70 47 02 46  Length = 226000 BitCount = 116 ID = 1840
   9.977071 1  730             Tx   d 8 25 00 20 42 4B 18 68 4F  Length = 228000 BitCount = 117 ID = 1840
   9.977305 1  730             Tx   d 8 26 F6 80 73 18 40 40 EA  Length = 228000 BitCount = 117 ID = 1840
   9.977537 1  730             Tx   d 8 27 02 10 08 43 3E 4B 18  Length = 226000 BitCount = 116 ID = 1840
   9.977769 1  730             Tx   d 8 28 60 70 47 3D 49 C8 61  Length = 226000 BitCount = 116 ID = 1840
   9.978061 1  7B0             Rx   d 8 30 08 00 00 00 00 00 00  Length = 239910 BitCount = 124 ID = 1968
   9.978407 1  730             Tx   d 8 29 70 47 F0 B5 0A 46 00  Length = 228259 BitCount = 117 ID = 1840
   9.978645 1  730             Tx   d 8 2A 23 00 24 00 21 00 25  Length = 232259 BitCount = 119 ID = 1840
   9.978881 1  730             Tx   d 8 2B 00 F0 00 46 B6 F1 00  Length = 230015 BitCount = 118 ID = 1840
   9.979109 1  730             Tx   d 8 2C 4F 02 D1 35 4E F1 69  Length = 222015 BitCount = 114 ID = 1840
   9.979341 1  730             Tx   d 8 2D 01 E0 34 4E 71 68 C0  Length = 226015 BitCount = 116 ID = 1840
   9.979577 1  730             Tx   d 8 2E F3 03 45 83 B2 00 F4  Length = 230015 BitCount = 118 ID = 1840
   9.979813 1  730             Tx   d 8 2F 40 16 B6 F5 40 1F 08  Length = 230015 BitCount = 118 ID = 1840
   9.980049 1  730             Tx   d 8 20 D1 21 F0 70 61 2E 4E  Length = 230015 BitCount = 118 ID = 1840
   9.980362 1  7B0             Rx   d 8 30 08 00 00 00 00 00 00  Length = 239925 BitCount = 124 ID = 1968
   9.980722 1  730             Tx   d 8 21 76 68 26 F0 70 66 2C  Length = 226259 BitCount = 116 ID = 1840
   9.980954 1  730             Tx   d 8 22 4F 7E 60 12 E0 AA AA  Length = 226259 BitCount = 116 ID = 1840
   9.981704 1  7B0             Rx   d 8 03 7F 36 78 00 00 00 00  Length = 233910 BitCount = 121 ID = 1968
   9.981946 1  7B0             Rx   d 8 02 76 17 00 00 00 00 00  Length = 233910 BitCount = 121 ID = 1968
   9.983418 1  730             Tx   d 8 10 82 36 18 00 F4 80 16  Length = 232259 BitCount = 119 ID = 1840
   9.983728 1  7B0             Rx   d 8 30 08 00 00 00 00 00 00  Length = 239910 BitCount = 124 ID = 1968
   9.984120 1  730             Tx   d 8 21 B6 F5 80 1F 06 D1 03  Length = 230259 BitCount = 118 ID = 1840
   9.984355 1  730             Tx   d 8 22 26 06 FA 05 F4 A1 43  Length = 228259 BitCount = 117 ID = 1840
   9.984593 1  730             Tx   d 8 23 41 F0 70 61 06 E0 46  Length = 232015 BitCount = 119 ID = 1840
   9.984829 1  730             Tx   d 8 24 0D 36 01 03 FA 06 F6  Length = 230015 BitCount = 118 ID = 1840
   9.985065 1  730             Tx   d 8 25 B1 43 41 F0 70 61 22  Length = 230015 BitCount = 118 ID = 1840
   9.985301 1  730             Tx   d 8 26 B1 46 0D 36 01 03 FA  Length = 230015 BitCount = 118 ID = 1840
   9.985537 1  730             Tx   d 8 27 06 F6 31 43 00 F0 00  Length = 230015 BitCount = 118 ID = 1840
   9.985767 1  730             Tx   d 8 28 46 B6 F1 00 4F 02 D1  Length = 224015 BitCount = 115 ID = 1840
   9.986055 1  7B0             Rx   d 8 30 08 00 00 00 00 00 00  Length = 239925 BitCount = 124 ID = 1968
   9.986413 1  730             Tx   d 8 29 1B 4E F1 61 01 E0 1A  Length = 224259 BitCount = 115 ID = 1840
   9.986647 1  730             Tx   d 8 2A 4E 71 60 F0 BD 30 B5  Length = 228259 BitCount = 117 ID = 1840
   9.986887 1  730             Tx   d 8 2B 00 22 8B 07 1C 0F 0F  Length = 234015 BitCount = 120 ID = 1840
   9.987123 1  730             Tx   d 8 2C 23 03 FA 04 F2 15 4B  Length = 230015 BitCount = 118 ID = 1840
   9.987361 1  730             Tx   d 8 2D 08 33 8C 10 53 F8 24  Length = 232015 BitCount = 119 ID = 1840
   9.987595 1  730             Tx   d 8 2E 30 93 43 12 4C 08 34  Length = 228015 BitCount = 117 ID = 1840
   9.987831 1  730             Tx   d 8 2F 8D 10 44 F8 25 30 23  Length = 230015 BitCount = 118 ID = 1840
   9.988069 1  730             Tx   d 8 20 46 8C 10 53 F8 24 30  Length = 232015 BitCount = 119 ID = 1840
   9.988381 1  7B0             Rx   d 8 30 08 00 00 00 00 00 00  Length = 239910 BitCount = 124 ID = 1968
   9.988797 1  730             Tx   d 8 21 8C 07 24 0F 00 FA 04  Length = 232244 BitCount = 119 ID = 1840
   9.989024 1  730             Tx   d 8 22 F4 23 43 0B 4C AA AA  Length = 220244 BitCount = 113 ID = 1840
   9.989697 1  7B0             Rx   d 8 03 7F 36 78 00 00 00 00  Length = 233925 BitCount = 121 ID = 1968
   9.989939 1  7B0             Rx   d 8 02 76 18 00 00 00 00 00  Length = 233910 BitCount = 121 ID = 1968
   9.991376 1  730             Tx   d 8 10 82 36 19 08 34 8D 10  Length = 224244 BitCount = 115 ID = 1840
   9.991662 1  7B0             Rx   d 8 30 08 00 00 00 00 00 00  Length = 239910 BitCount = 124 ID = 1968
   9.991976 1  730             Tx   d 8 21 44 F8 25 30 30 BD 0A  Length = 226244 BitCount = 116 ID = 1840
   9.992212 1  730             Tx   d 8 22 49 08 60 70 47 00 08  Length = 230244 BitCount = 118 ID = 1840
   9.992454 1  730             Tx   d 8 23 01 40 00 0C 01 40 00  Length = 236000 BitCount = 121 ID = 1840
   9.992696 1  730             Tx   d 8 24 10 01 40 00 14 01 40  Length = 236000 BitCount = 121 ID = 1840
   9.992938 1  730             Tx   d 8 25 00 18 01 40 00 1C 01  Length = 236000 BitCount = 121 ID = 1840
   9.993184 1  730             Tx   d 8 26 40 00 20 01 40 00 00  Length = 240000 BitCount = 123 ID = 1840
   9.993422 1  730             Tx   d 8 27 01 40 00 00 20 42 DC  Length = 232000 BitCount = 119 ID = 1840
   9.993656 1  730             Tx   d 8 28 00 20 42 10 B5 04 46  Length = 228000 BitCount = 117 ID = 1840
   9.993968 1  7B0             Rx   d 8 30 08 00 00 00 00 00 00  Length = 239910 BitCount = 124 ID = 1968
   9.994526 1  730             Tx   d 8 29 FC 48 84 42 09 D1 01  Length = 226244 BitCount = 116 ID = 1840
   9.994765 1  730             Tx   d 8 2A 21 88 03 FF F7 FD FD  Length = 232244 BitCount = 119 ID = 1840
   9.995003 1  730             Tx   d 8 2B 00 21 4F F4 80 40 FF  Length = 232000 BitCount = 119 ID = 1840
   9.995239 1  730             Tx   d 8 2C F7 F8 FD 32 E0 F7 48  Length = 230000 BitCount = 118 ID = 1840
   9.995469 1  730             Tx   d 8 2D 84 42 09 D1 01 21 48  Length = 224000 BitCount = 115 ID = 1840
   9.995709 1  730             Tx   d 8 2E 04 FF F7 FD FD 00 21  Length = 234000 BitCount = 120 ID = 1840
   9.995949 1  730             Tx   d 8 2F 4F F4 00 30 FF F7 F8  Length = 234000 BitCount = 120 ID = 1840
   9.996185 1  730             Tx   d 8 20 FD 25 E0 F1 48 84 42  Length = 230000 BitCount = 118 ID = 1840
   9.996483 1  7B0             Rx   d 8 30 08 00 00 00 00 00 00  Length = 239910 BitCount = 124 ID = 1968
   9.996871 1  730             Tx   d 8 21 09 D1 01 21 88 04 FF  Length = 226244 BitCount = 116 ID = 1840
   9.997107 1  730             Tx   d 8 22 F7 F0 FD 00 21 AA AA  Length = 230244 BitCount = 118 ID = 1840
   9.997691 1  7B0             Rx   d 8 03 7F 36 78 00 00 00 00  Length = 233910 BitCount = 121 ID = 1968
   9.997933 1  7B0             Rx   d 8 02 76 19 00 00 00 00 00  Length = 233910 BitCount = 121 ID = 1968
   9.999423 1  730             Tx   d 8 10 82 36 1A 4F F4 80 20  Length = 228244 BitCount = 117 ID = 1840
   9.999709 1  7B0             Rx   d 8 30 08 00 00 00 00 00 00  Length = 239910 BitCount = 124 ID = 1968
  10.000060 1  730             Tx   d 8 21 FF F7 EB FD 18 E0 EC  Length = 232244 BitCount = 119 ID = 1840
  10.000290 1  730             Tx   d 8 22 48 84 42 09 D1 01 21  Length = 224244 BitCount = 115 ID = 1840
  10.000530 1  730             Tx   d 8 23 C8 04 FF F7 E3 FD 00  Length = 234000 BitCount = 120 ID = 1840
  10.000768 1  730             Tx   d 8 24 21 4F F4 00 20 FF F7  Length = 232000 BitCount = 119 ID = 1840
  10.001000 1  730             Tx   d 8 25 DE FD 0B E0 E6 48 84  Length = 226000 BitCount = 116 ID = 1840
  10.001234 1  730             Tx   d 8 26 42 08 D1 01 21 08 05  Length = 228000 BitCount = 117 ID = 1840
  10.001474 1  730             Tx   d 8 27 FF F7 D6 FD 00 21 4F  Length = 234000 BitCount = 120 ID = 1840
  10.001712 1  730             Tx   d 8 28 F4 80 10 FF F7 D1 FD  Length = 232000 BitCount = 119 ID = 1840
  10.002014 1  7B0             Rx   d 8 30 08 00 00 00 00 00 00  Length = 239910 BitCount = 124 ID = 1968
  10.002386 1  730             Tx   d 8 29 10 BD 2D E9 F0 47 86  Length = 226244 BitCount = 116 ID = 1840
  10.002620 1  730             Tx   d 8 2A B0 05 46 0E 46 00 24  Length = 228244 BitCount = 117 ID = 1840
  10.002854 1  730             Tx   d 8 2B A2 46 00 BF A1 46 00  Length = 228000 BitCount = 117 ID = 1840
  10.003088 1  730             Tx   d 8 2C 27 B0 89 00 B1 00 BF  Length = 228000 BitCount = 117 ID = 1840
  10.003320 1  730             Tx   d 8 2D 2F 46 2C 8A 4C F6 FF  Length = 226000 BitCount = 116 ID = 1840
  10.003552 1  730             Tx   d 8 2E 70 04 40 F0 88 04 43  Length = 226000 BitCount = 116 ID = 1840
  10.003780 1  730             Tx   d 8 2F 2C 82 AC 89 4E F6 F3  Length = 222000 BitCount = 114 ID = 1840
  10.004014 1  730             Tx   d 8 20 10 04 40 B0 88 31 89  Length = 228000 BitCount = 117 ID = 1840
  10.004315 1  7B0             Rx   d 8 30 08 00 00 00 00 00 00  Length = 239910 BitCount = 124 ID = 1968
  10.004677 1  730             Tx   d 8 21 08 43 71 89 08 43 04  Length = 226244 BitCount = 116 ID = 1840
  10.004905 1  730             Tx   d 8 22 43 AC 81 AC 8A AA AA  Length = 222244 BitCount = 114 ID = 1840
  10.005683 1  7B0             Rx   d 8 03 7F 36 78 00 00 00 00  Length = 233925 BitCount = 121 ID = 1968
  10.005924 CAN 1 Status:chip status error active
  10.005925 1  7B0             Rx   d 8 02 76 1A 00 00 00 00 00  Length = 233925 BitCount = 121 ID = 1968
  10.007405 1  730             Tx   d 8 10 82 36 1B 4F F6 FF 40  Length = 228259 BitCount = 117 ID = 1840
  10.007703 1  7B0             Rx   d 8 30 08 00 00 00 00 00 00  Length = 239910 BitCount = 124 ID = 1968
  10.008075 1  730             Tx   d 8 21 04 40 B0 89 04 43 AC  Length = 226244 BitCount = 116 ID = 1840
  10.008312 1  730             Tx   d 8 22 82 01 A8 FF F7 12 FD  Length = 230244 BitCount = 118 ID = 1840
  10.008542 1  730             Tx   d 8 23 C7 48 87 42 02 D1 DD  Length = 224000 BitCount = 115 ID = 1840
  10.008782 1  730             Tx   d 8 24 F8 10 A0 01 E0 DD F8  Length = 234000 BitCount = 120 ID = 1840
  10.009016 1  730             Tx   d 8 25 0C A0 A8 89 10 F4 00  Length = 228000 BitCount = 117 ID = 1840
  10.009248 1  730             Tx   d 8 26 4F 08 D0 0A EB CA 00  Length = 226000 BitCount = 116 ID = 1840
  10.009480 1  730             Tx   d 8 27 00 EB 0A 10 31 68 49  Length = 226000 BitCount = 116 ID = 1840
  10.009724 1  730             Tx   d 8 28 00 B0 FB F1 F8 07 E0  Length = 238000 BitCount = 122 ID = 1840
  10.010036 1  7B0             Rx   d 8 30 08 00 00 00 00 00 00  Length = 239910 BitCount = 124 ID = 1968
  10.010434 1  730             Tx   d 8 29 0A EB CA 00 00 EB 0A  Length = 228244 BitCount = 117 ID = 1840
  10.010668 1  730             Tx   d 8 2A 10 31 68 89 00 B0 FB  Length = 228244 BitCount = 117 ID = 1840
  10.010906 1  730             Tx   d 8 2B F1 F8 64 20 B8 FB F0  Length = 232000 BitCount = 119 ID = 1840
  10.011140 1  730             Tx   d 8 2C F0 04 01 20 09 64 21  Length = 228000 BitCount = 117 ID = 1840
  10.011372 1  730             Tx   d 8 2D 01 FB 10 89 A8 89 10  Length = 226000 BitCount = 116 ID = 1840
  10.011608 1  730             Tx   d 8 2E F4 00 4F 08 D0 32 20  Length = 230000 BitCount = 118 ID = 1840
  10.011844 1  730             Tx   d 8 2F 00 EB C9 00 B0 FB F1  Length = 230000 BitCount = 118 ID = 1840
  10.012086 1  730             Tx   d 8 20 F0 00 F0 07 00 04 43  Length = 236000 BitCount = 121 ID = 1840
  10.012388 1  7B0             Rx   d 8 30 08 00 00 00 00 00 00  Length = 239910 BitCount = 124 ID = 1968
  10.012799 1  730             Tx   d 8 21 08 E0 32 20 00 EB 09  Length = 226244 BitCount = 116 ID = 1840
  10.013031 1  730             Tx   d 8 22 10 64 21 B0 FB AA AA  Length = 226244 BitCount = 116 ID = 1840
  10.013705 1  7B0             Rx   d 8 03 7F 36 78 00 00 00 00  Length = 233910 BitCount = 121 ID = 1968
  10.013947 1  7B0             Rx   d 8 02 76 1B 00 00 00 00 00  Length = 233910 BitCount = 121 ID = 1968
  10.015377 1  730             Tx   d 8 10 82 36 1C F1 F0 00 F0  Length = 228244 BitCount = 117 ID = 1840
  10.015669 1  7B0             Rx   d 8 30 08 00 00 00 00 00 00  Length = 239910 BitCount = 124 ID = 1968
  10.016111 1  730             Tx   d 8 21 0F 00 04 43 2C 81 06  Length = 228244 BitCount = 117 ID = 1840
  10.016341 1  730             Tx   d 8 22 B0 BD E8 F0 87 4F F4  Length = 224244 BitCount = 115 ID = 1840
  10.016577 1  730             Tx   d 8 23 16 51 01 60 00 21 81  Length = 230000 BitCount = 118 ID = 1840
  10.016813 1  730             Tx   d 8 24 80 C1 80 01 81 0C 21  Length = 230000 BitCount = 118 ID = 1840
  10.017051 1  730             Tx   d 8 25 41 81 00 21 81 81 70  Length = 232000 BitCount = 119 ID = 1840
  10.017285 1  730             Tx   d 8 26 47 10 B5 02 46 00 20  Length = 228000 BitCount = 117 ID = 1840
  10.017519 1  730             Tx   d 8 27 10 8A 4F F2 FF 03 18  Length = 228000 BitCount = 117 ID = 1840
  10.017751 1  730             Tx   d 8 28 40 0B 88 4C 88 23 43  Length = 226000 BitCount = 116 ID = 1840
  10.018055 1  7B0             Rx   d 8 30 08 00 00 00 00 00 00  Length = 239910 BitCount = 124 ID = 1968
  10.018392 1  730             Tx   d 8 29 8C 88 23 43 CC 88 23  Length = 224244 BitCount = 115 ID = 1840
  10.018620 1  730             Tx   d 8 2A 43 18 43 10 82 10 BD  Length = 222244 BitCount = 114 ID = 1840
  10.018864 1  730             Tx   d 8 2B 00 21 01 80 41 80 81  Length = 238000 BitCount = 122 ID = 1840
  10.019100 1  730             Tx   d 8 2C 80 C1 80 70 47 21 B1  Length = 230000 BitCount = 118 ID = 1840
  10.019334 1  730             Tx   d 8 2D 82 89 42 F4 00 52 82  Length = 228000 BitCount = 117 ID = 1840
  10.019572 1  730             Tx   d 8 2E 81 04 E0 82 89 4D F6  Length = 232000 BitCount = 119 ID = 1840
  10.019812 1  730             Tx   d 8 2F FF 73 1A 40 82 81 70  Length = 234000 BitCount = 120 ID = 1840
  10.020052 1  730             Tx   d 8 20 47 F0 B5 03 46 00 24  Length = 234000 BitCount = 120 ID = 1840
  10.020354 1  7B0             Rx   d 8 30 08 00 00 00 00 00 00  Length = 239925 BitCount = 124 ID = 1968
  10.020688 1  730             Tx   d 8 21 00 26 00 25 00 20 A1  Length = 238259 BitCount = 122 ID = 1840
  10.020920 1  730             Tx   d 8 22 F5 10 67 6A 3F AA AA  Length = 226259 BitCount = 116 ID = 1840
  10.021698 1  7B0             Rx   d 8 03 7F 36 78 00 00 00 00  Length = 233910 BitCount = 121 ID = 1968
  10.021942 1  7B0             Rx   d 8 02 76 1C 00 00 00 00 00  Length = 235910 BitCount = 122 ID = 1968
  10.023373 1  730             Tx   d 8 10 82 36 1D 00 D1 00 BF  Length = 230259 BitCount = 118 ID = 1840
  10.023662 1  7B0             Rx   d 8 30 08 00 00 00 00 00 00  Length = 239910 BitCount = 124 ID = 1968
  10.024067 1  730             Tx   d 8 21 18 46 C1 F3 42 14 01  Length = 228259 BitCount = 117 ID = 1840
  10.024305 1  730             Tx   d 8 22 F0 1F 06 01 27 07 FA  Length = 232259 BitCount = 119 ID = 1840
  10.024541 1  730             Tx   d 8 23 06 F5 01 2C 01 D1 0C  Length = 230015 BitCount = 118 ID = 1840
  10.024775 1  730             Tx   d 8 24 30 04 E0 02 2C 01 D1  Length = 228015 BitCount = 117 ID = 1840
  10.025015 1  730             Tx   d 8 25 10 30 00 E0 14 30 1A  Length = 234015 BitCount = 120 ID = 1840
  10.025249 1  730             Tx   d 8 26 B1 07 68 2F 43 07 60  Length = 228015 BitCount = 117 ID = 1840
  10.025485 1  730             Tx   d 8 27 02 E0 07 68 AF 43 07  Length = 230015 BitCount = 118 ID = 1840
  10.025717 1  730             Tx   d 8 28 60 F0 BD 10 B5 1A B1  Length = 226015 BitCount = 116 ID = 1840
  10.026021 1  7B0             Rx   d 8 30 08 00 00 00 00 00 00  Length = 239925 BitCount = 124 ID = 1968
  10.026357 1  730             Tx   d 8 29 83 8A 0B 43 83 82 04  Length = 230259 BitCount = 118 ID = 1840
  10.026589 1  730             Tx   d 8 2A E0 83 8A CC 43 A4 B2  Length = 226259 BitCount = 116 ID = 1840
  10.026823 1  730             Tx   d 8 2B 23 40 83 82 10 BD 02  Length = 228015 BitCount = 117 ID = 1840
  10.027057 1  730             Tx   d 8 2C 8A 4F F6 F0 73 1A 40  Length = 228015 BitCount = 117 ID = 1840
  10.027293 1  730             Tx   d 8 2D 02 82 02 8A 0A 43 02  Length = 230015 BitCount = 118 ID = 1840
  10.027527 1  730             Tx   d 8 2E 82 70 47 82 89 4F F2  Length = 228015 BitCount = 117 ID = 1840
  10.027767 1  730             Tx   d 8 2F FF 73 1A 40 82 81 82  Length = 234015 BitCount = 120 ID = 1840
  10.028003 1  730             Tx   d 8 20 89 0A 43 82 81 70 47  Length = 230015 BitCount = 118 ID = 1840
  10.028294 1  7B0             Rx   d 8 30 08 00 00 00 00 00 00  Length = 239910 BitCount = 124 ID = 1968
  10.028694 1  730             Tx   d 8 21 21 B1 82 89 42 F0 02  Length = 230244 BitCount = 118 ID = 1840
  10.028932 1  730             Tx   d 8 22 02 82 81 04 E0 AA AA  Length = 232244 BitCount = 119 ID = 1840
  10.029690 1  7B0             Rx   d 8 03 7F 36 78 00 00 00 00  Length = 233910 BitCount = 121 ID = 1968
  10.029934 1  7B0             Rx   d 8 02 76 1D 00 00 00 00 00  Length = 235910 BitCount = 122 ID = 1968
  10.031416 1  730             Tx   d 8 10 82 36 1E 82 89 4F F6  Length = 226244 BitCount = 116 ID = 1840
  10.031710 1  7B0             Rx   d 8 30 08 00 00 00 00 00 00  Length = 239910 BitCount = 124 ID = 1968
  10.032074 1  730             Tx   d 8 21 FD 73 1A 40 82 81 70  Length = 228244 BitCount = 117 ID = 1840
  10.032307 1  730             Tx   d 8 22 47 02 8A 4F F6 DF 73  Length = 226244 BitCount = 116 ID = 1840
  10.032545 1  730             Tx   d 8 23 1A 40 02 82 02 8A 0A  Length = 232000 BitCount = 119 ID = 1840
  10.032777 1  730             Tx   d 8 24 43 02 82 70 47 21 B1  Length = 226000 BitCount = 116 ID = 1840
  10.033009 1  730             Tx   d 8 25 02 8A 42 F4 80 42 02  Length = 226000 BitCount = 116 ID = 1840
  10.033245 1  730             Tx   d 8 26 82 04 E0 02 8A 4B F6  Length = 230000 BitCount = 118 ID = 1840
  10.033483 1  730             Tx   d 8 27 FF 73 1A 40 02 82 70  Length = 232000 BitCount = 119 ID = 1840
  10.033723 1  730             Tx   d 8 28 47 C1 F3 08 02 82 80  Length = 234000 BitCount = 120 ID = 1840
  10.034015 1  7B0             Rx   d 8 30 08 00 00 00 00 00 00  Length = 239910 BitCount = 124 ID = 1968
  10.034405 1  730             Tx   d 8 29 70 47 01 46 88 88 C0  Length = 226259 BitCount = 116 ID = 1840
  10.034639 1  730             Tx   d 8 2A F3 08 00 70 47 81 89  Length = 228259 BitCount = 117 ID = 1840
  10.034881 1  730             Tx   d 8 2B 41 F0 01 01 81 81 70  Length = 236015 BitCount = 121 ID = 1840
  10.035113 1  730             Tx   d 8 2C 47 02 8B D2 B2 02 83  Length = 226015 BitCount = 116 ID = 1840
  10.035347 1  730             Tx   d 8 2D 02 8B 42 EA 01 22 02  Length = 228015 BitCount = 117 ID = 1840
  10.035583 1  730             Tx   d 8 2E 83 70 47 02 8B 02 F4  Length = 230015 BitCount = 118 ID = 1840
  10.035817 1  730             Tx   d 8 2F 7F 42 02 83 02 8B 0A  Length = 228015 BitCount = 117 ID = 1840
  10.036055 1  730             Tx   d 8 20 43 02 83 70 47 21 B1  Length = 232015 BitCount = 119 ID = 1840
  10.036369 1  7B0             Rx   d 8 30 08 00 00 00 00 00 00  Length = 239925 BitCount = 124 ID = 1968
  10.036826 1  730             Tx   d 8 21 82 8A 42 F0 20 02 82  Length = 230259 BitCount = 118 ID = 1840
  10.037060 1  730             Tx   d 8 22 82 04 E0 82 8A AA AA  Length = 228259 BitCount = 117 ID = 1840
  10.037684 1  7B0             Rx   d 8 03 7F 36 78 00 00 00 00  Length = 233910 BitCount = 121 ID = 1968
  10.037928 1  7B0             Rx   d 8 02 76 1E 00 00 00 00 00  Length = 235910 BitCount = 122 ID = 1968
  10.039434 1  730             Tx   d 8 10 82 36 1F 4F F6 DF 73  Length = 230244 BitCount = 118 ID = 1840
  10.039736 1  7B0             Rx   d 8 30 08 00 00 00 00 00 00  Length = 239910 BitCount = 124 ID = 1968
  10.040112 1  730             Tx   d 8 21 1A 40 82 82 70 47 21  Length = 228244 BitCount = 117 ID = 1840
  10.040347 1  730             Tx   d 8 22 B1 82 8A 42 F0 10 02  Length = 228244 BitCount = 117 ID = 1840
  10.040583 1  730             Tx   d 8 23 82 82 04 E0 82 8A 4F  Length = 230000 BitCount = 118 ID = 1840
  10.040817 1  730             Tx   d 8 24 F6 EF 73 1A 40 82 82  Length = 228000 BitCount = 117 ID = 1840
  10.041047 1  730             Tx   d 8 25 70 47 21 B1 82 8A 42  Length = 224000 BitCount = 115 ID = 1840
  10.041285 1  730             Tx   d 8 26 F0 08 02 82 82 04 E0  Length = 232000 BitCount = 119 ID = 1840
  10.041517 1  730             Tx   d 8 27 82 8A 4F F6 F7 73 1A  Length = 226000 BitCount = 116 ID = 1840
  10.041751 1  730             Tx   d 8 28 40 82 82 70 47 21 B1  Length = 228000 BitCount = 117 ID = 1840
  10.042063 1  7B0             Rx   d 8 30 08 00 00 00 00 00 00  Length = 239910 BitCount = 124 ID = 1968
  10.042485 1  730             Tx   d 8 29 82 89 42 F4 00 42 82  Length = 228244 BitCount = 117 ID = 1840
  10.042723 1  730             Tx   d 8 2A 81 03 E0 82 89 C2 F3  Length = 232244 BitCount = 119 ID = 1840
  10.042957 1  730             Tx   d 8 2B 0E 02 82 81 70 47 21  Length = 228000 BitCount = 117 ID = 1840
  10.043191 1  730             Tx   d 8 2C B1 82 8A 42 F4 00 62  Length = 228000 BitCount = 117 ID = 1840
  10.043429 1  730             Tx   d 8 2D 82 82 04 E0 82 8A 4F  Length = 232000 BitCount = 119 ID = 1840
  10.043663 1  730             Tx   d 8 2E F2 FF 73 1A 40 82 82  Length = 228000 BitCount = 117 ID = 1840
  10.043899 1  730             Tx   d 8 2F 70 47 82 8A 4F F6 FB  Length = 230000 BitCount = 118 ID = 1840
  10.044135 1  730             Tx   d 8 20 73 1A 40 82 82 82 8A  Length = 230000 BitCount = 118 ID = 1840
  10.044443 1  7B0             Rx   d 8 30 08 00 00 00 00 00 00  Length = 239910 BitCount = 124 ID = 1968
  10.044745 1  730             Tx   d 8 21 0A 43 82 82 70 47 21  Length = 226259 BitCount = 116 ID = 1840
  10.044974 1  730             Tx   d 8 22 B1 82 8A 42 F0 AA AA  Length = 222259 BitCount = 114 ID = 1840
  10.045703 1  7B0             Rx   d 8 03 7F 36 78 00 00 00 00  Length = 233910 BitCount = 121 ID = 1968
  10.045948 1  7B0             Rx   d 8 02 76 1F 00 00 00 00 00  Length = 235910 BitCount = 122 ID = 1968
  10.047512 1  730             Tx   d 8 10 82 36 20 02 02 82 82  Length = 234244 BitCount = 120 ID = 1840
  10.047810 1  7B0             Rx   d 8 30 08 00 00 00 00 00 00  Length = 239910 BitCount = 124 ID = 1968
  10.048158 1  730             Tx   d 8 21 04 E0 82 8A 4F F6 FD  Length = 230244 BitCount = 118 ID = 1840
  10.048392 1  730             Tx   d 8 22 73 1A 40 82 82 70 47  Length = 228244 BitCount = 117 ID = 1840
  10.048630 1  730             Tx   d 8 23 02 46 00 20 B1 F5 00  Length = 232000 BitCount = 119 ID = 1840
  10.048864 1  730             Tx   d 8 24 7F 00 D1 00 BF 13 88  Length = 228000 BitCount = 117 ID = 1840
  10.049100 1  730             Tx   d 8 25 0B 42 01 D0 01 20 00  Length = 230000 BitCount = 118 ID = 1840
  10.049340 1  730             Tx   d 8 26 E0 00 20 70 47 01 F4  Length = 234000 BitCount = 120 ID = 1840
  10.049576 1  730             Tx   d 8 27 00 72 B2 F5 00 7F 00  Length = 230000 BitCount = 118 ID = 1840
  10.049812 1  730             Tx   d 8 28 D1 00 BF CA 43 02 80  Length = 230000 BitCount = 118 ID = 1840
  10.050110 1  7B0             Rx   d 8 30 08 00 00 00 00 00 00  Length = 239910 BitCount = 124 ID = 1968
  10.050533 1  730             Tx   d 8 29 70 47 70 B5 02 46 00  Length = 230244 BitCount = 118 ID = 1840
  10.050773 1  730             Tx   d 8 2A 24 00 23 00 25 00 20  Length = 234244 BitCount = 120 ID = 1840
  10.051009 1  730             Tx   d 8 2B A1 F5 10 66 6A 3E 00  Length = 230000 BitCount = 118 ID = 1840
  10.051245 1  730             Tx   d 8 2C D1 00 BF C1 F3 42 15  Length = 230000 BitCount = 118 ID = 1840
  10.051485 1  730             Tx   d 8 2D 01 F0 1F 03 01 26 06  Length = 234000 BitCount = 120 ID = 1840
  10.051721 1  730             Tx   d 8 2E FA 03 F3 01 2D 02 D1  Length = 230000 BitCount = 118 ID = 1840
  10.051959 1  730             Tx   d 8 2F 96 89 33 40 06 E0 02  Length = 232000 BitCount = 119 ID = 1840
  10.052191 1  730             Tx   d 8 20 2D 02 D1 16 8A 33 40  Length = 226000 BitCount = 116 ID = 1840
  10.052489 1  7B0             Rx   d 8 30 08 00 00 00 00 00 00  Length = 239910 BitCount = 124 ID = 1968
  10.052855 1  730             Tx   d 8 21 01 E0 96 8A 33 40 0C  Length = 230244 BitCount = 118 ID = 1840
  10.053087 1  730             Tx   d 8 22 12 01 26 06 FA AA AA  Length = 226244 BitCount = 116 ID = 1840
  10.053697 1  7B0             Rx   d 8 03 7F 36 78 00 00 00 00  Length = 233925 BitCount = 121 ID = 1968
  10.053943 1  7B0             Rx   d 8 02 76 20 00 00 00 00 00  Length = 237910 BitCount = 123 ID = 1968
  10.055506 1  730             Tx   d 8 10 82 36 21 04 F4 16 88  Length = 226244 BitCount = 116 ID = 1840
  10.055803 1  7B0             Rx   d 8 30 08 00 00 00 00 00 00  Length = 239910 BitCount = 124 ID = 1968
  10.056146 1  730             Tx   d 8 21 34 40 13 B1 0C B1 01  Length = 224244 BitCount = 115 ID = 1840
  10.056384 1  730             Tx   d 8 22 20 00 E0 00 20 70 BD  Length = 232244 BitCount = 119 ID = 1840
  10.056620 1  730             Tx   d 8 23 10 B5 00 22 00 23 A1  Length = 230000 BitCount = 118 ID = 1840
  10.056854 1  730             Tx   d 8 24 F5 10 64 6A 3C 00 D1  Length = 228000 BitCount = 117 ID = 1840
  10.057086 1  730             Tx   d 8 25 00 BF 0A 12 01 24 94  Length = 226000 BitCount = 116 ID = 1840
  10.057318 1  730             Tx   d 8 26 40 A3 B2 DC 43 04 80  Length = 226000 BitCount = 116 ID = 1840
  10.057560 1  730             Tx   d 8 27 10 BD 00 38 01 40 00  Length = 236000 BitCount = 121 ID = 1840
  10.057804 1  730             Tx   d 8 28 44 00 40 00 48 00 40  Length = 238000 BitCount = 122 ID = 1840
  10.058102 1  7B0             Rx   d 8 30 08 00 00 00 00 00 00  Length = 239910 BitCount = 124 ID = 1968
  10.058524 1  730             Tx   d 8 29 00 4C 00 40 00 50 00  Length = 236244 BitCount = 121 ID = 1840
  10.058762 1  730             Tx   d 8 2A 40 00 21 00 20 67 4A  Length = 232244 BitCount = 119 ID = 1840
  10.058992 1  730             Tx   d 8 2B 12 68 42 F4 80 32 65  Length = 224000 BitCount = 115 ID = 1840
  10.059224 1  730             Tx   d 8 2C 4B 1A 60 00 BF 64 4A  Length = 226000 BitCount = 116 ID = 1840
  10.059458 1  730             Tx   d 8 2D 12 68 02 F4 00 30 49  Length = 228000 BitCount = 117 ID = 1840
  10.059692 1  730             Tx   d 8 2E 1C 10 B9 B1 F5 A0 6F  Length = 228000 BitCount = 117 ID = 1840
  10.059926 1  730             Tx   d 8 2F F6 D1 5F 4A 12 68 12  Length = 228000 BitCount = 117 ID = 1840
  10.060170 1  730             Tx   d 8 20 F4 00 3F 01 D0 01 20  Length = 238000 BitCount = 122 ID = 1840
  10.060483 1  7B0             Rx   d 8 30 08 00 00 00 00 00 00  Length = 239910 BitCount = 124 ID = 1968
  10.060885 1  730             Tx   d 8 21 00 E0 00 20 01 28 42  Length = 232244 BitCount = 119 ID = 1840
  10.061113 1  730             Tx   d 8 22 D1 5B 4A 12 68 AA AA  Length = 222244 BitCount = 114 ID = 1840
  10.061691 1  7B0             Rx   d 8 03 7F 36 78 00 00 00 00  Length = 233910 BitCount = 121 ID = 1968
  10.061933 1  7B0             Rx   d 8 02 76 21 00 00 00 00 00  Length = 233925 BitCount = 121 ID = 1968
  10.063493 1  730             Tx   d 8 10 82 36 22 42 F0 10 02  Length = 228259 BitCount = 117 ID = 1840
  10.063797 1  7B0             Rx   d 8 30 08 00 00 00 00 00 00  Length = 239925 BitCount = 124 ID = 1968
  10.064165 1  730             Tx   d 8 21 59 4B 1A 60 1A 46 12  Length = 222259 BitCount = 114 ID = 1840
  10.064402 1  730             Tx   d 8 22 68 22 F0 03 02 1A 60  Length = 230259 BitCount = 118 ID = 1840
  10.064632 1  730             Tx   d 8 23 1A 46 12 68 42 F0 02  Length = 224015 BitCount = 115 ID = 1840
  10.064864 1  730             Tx   d 8 24 02 1A 60 52 4A 52 68  Length = 226015 BitCount = 116 ID = 1840
  10.065092 1  730             Tx   d 8 25 51 4B 5A 60 1A 46 52  Length = 222015 BitCount = 114 ID = 1840
  10.065320 1  730             Tx   d 8 26 68 5A 60 1A 46 52 68  Length = 222015 BitCount = 114 ID = 1840
  10.065552 1  730             Tx   d 8 27 42 F4 80 62 5A 60 1A  Length = 226015 BitCount = 116 ID = 1840
  10.065786 1  730             Tx   d 8 28 46 52 68 22 F4 7C 12  Length = 228015 BitCount = 117 ID = 1840
  10.066096 1  7B0             Rx   d 8 30 08 00 00 00 00 00 00  Length = 239910 BitCount = 124 ID = 1968
  10.066498 1  730             Tx   d 8 29 5A 60 1A 46 52 68 42  Length = 222244 BitCount = 114 ID = 1840
  10.066728 1  730             Tx   d 8 2A F4 E8 12 5A 60 1A 46  Length = 224244 BitCount = 115 ID = 1840
  10.066956 1  730             Tx   d 8 2B 12 68 42 F0 80 72 1A  Length = 222000 BitCount = 114 ID = 1840
  10.067190 1  730             Tx   d 8 2C 60 00 BF 44 4A 12 68  Length = 228000 BitCount = 117 ID = 1840
  10.067426 1  730             Tx   d 8 2D 12 F0 00 7F FA D0 42  Length = 230000 BitCount = 118 ID = 1840
  10.067660 1  730             Tx   d 8 2E 4A 52 68 22 F0 03 02  Length = 228000 BitCount = 117 ID = 1840
  10.067890 1  730             Tx   d 8 2F 40 4B 5A 60 1A 46 52  Length = 224000 BitCount = 115 ID = 1840
  10.068128 1  730             Tx   d 8 20 68 42 F0 02 02 5A 60  Length = 232000 BitCount = 119 ID = 1840
  10.068422 1  7B0             Rx   d 8 30 08 00 00 00 00 00 00  Length = 239910 BitCount = 124 ID = 1968
  10.068746 1  730             Tx   d 8 21 00 BF 3C 4A 52 68 02  Length = 226259 BitCount = 116 ID = 1840
  10.068983 1  730             Tx   d 8 22 F0 0C 02 08 2A AA AA  Length = 230259 BitCount = 118 ID = 1840
  10.069684 1  7B0             Rx   d 8 03 7F 36 78 00 00 00 00  Length = 233910 BitCount = 121 ID = 1968
  10.069927 1  7B0             Rx   d 8 02 76 22 00 00 00 00 00  Length = 233910 BitCount = 121 ID = 1968
  10.071525 1  730             Tx   d 8 10 82 36 23 F9 D1 70 47  Length = 228259 BitCount = 117 ID = 1840
  10.071817 1  7B0             Rx   d 8 30 08 00 00 00 00 00 00  Length = 239910 BitCount = 124 ID = 1968
  10.072155 1  730             Tx   d 8 21 10 B5 FF F7 9D FF 10  Length = 228259 BitCount = 117 ID = 1840
  10.072385 1  730             Tx   d 8 22 BD 10 B5 36 48 00 68  Length = 224259 BitCount = 115 ID = 1840
  10.072623 1  730             Tx   d 8 23 40 F0 01 00 34 49 08  Length = 232015 BitCount = 119 ID = 1840
  10.072855 1  730             Tx   d 8 24 60 08 46 40 68 34 49  Length = 226015 BitCount = 116 ID = 1840
  10.073087 1  730             Tx   d 8 25 08 40 31 49 48 60 08  Length = 226015 BitCount = 116 ID = 1840
  10.073325 1  730             Tx   d 8 26 46 00 68 32 49 08 40  Length = 232015 BitCount = 119 ID = 1840
  10.073555 1  730             Tx   d 8 27 2E 49 08 60 08 46 00  Length = 224015 BitCount = 115 ID = 1840
  10.073795 1  730             Tx   d 8 28 68 20 F4 80 20 08 60  Length = 234015 BitCount = 120 ID = 1840
  10.074089 1  7B0             Rx   d 8 30 08 00 00 00 00 00 00  Length = 239925 BitCount = 124 ID = 1968
  10.074480 1  730             Tx   d 8 29 08 46 40 68 20 F4 FE  Length = 232259 BitCount = 119 ID = 1840
  10.074720 1  730             Tx   d 8 2A 00 48 60 4F F4 1F 00  Length = 234259 BitCount = 120 ID = 1840
  10.074956 1  730             Tx   d 8 2B 88 60 FF F7 DA FF 4F  Length = 230015 BitCount = 118 ID = 1840
  10.075192 1  730             Tx   d 8 2C F0 00 60 28 49 08 60  Length = 230015 BitCount = 118 ID = 1840
  10.075424 1  730             Tx   d 8 2D 10 BD 10 B5 00 21 00  Length = 226015 BitCount = 116 ID = 1840
  10.075658 1  730             Tx   d 8 2E 20 00 22 21 4B 5B 68  Length = 228015 BitCount = 117 ID = 1840
  10.075894 1  730             Tx   d 8 2F 03 F0 0C 01 21 B1 04  Length = 230015 BitCount = 118 ID = 1840
  10.076132 1  730             Tx   d 8 20 29 06 D0 08 29 28 D1  Length = 232015 BitCount = 119 ID = 1840
  10.076442 1  7B0             Rx   d 8 30 08 00 00 00 00 00 00  Length = 239910 BitCount = 124 ID = 1968
  10.076930 1  730             Tx   d 8 21 07 E0 21 4B 21 4C 23  Length = 226244 BitCount = 116 ID = 1840
  10.077168 1  730             Tx   d 8 22 60 27 E0 1F 4B AA AA  Length = 232244 BitCount = 119 ID = 1840
  10.077704 1  7B0             Rx   d 8 03 7F 36 78 00 00 00 00  Length = 233910 BitCount = 121 ID = 1968
  10.077946 1  7B0             Rx   d 8 02 76 23 00 00 00 00 00  Length = 233910 BitCount = 121 ID = 1968
  10.079573 1  730             Tx   d 8 10 82 36 24 1F 4C 23 60  Length = 228244 BitCount = 117 ID = 1840
  10.079865 1  7B0             Rx   d 8 30 08 00 00 00 00 00 00  Length = 239910 BitCount = 124 ID = 1968
  10.080399 1  730             Tx   d 8 21 23 E0 18 4B 5B 68 03  Length = 226244 BitCount = 116 ID = 1840
  10.080631 1  730             Tx   d 8 22 F4 70 10 16 4B 5B 68  Length = 226244 BitCount = 116 ID = 1840
  10.080867 1  730             Tx   d 8 23 03 F4 80 32 02 23 03  Length = 230000 BitCount = 118 ID = 1840
  10.081097 1  730             Tx   d 8 24 EB 90 40 22 B9 19 4B  Length = 224000 BitCount = 115 ID = 1840
  10.081327 1  730             Tx   d 8 25 43 43 17 4C 23 60 0D  Length = 224000 BitCount = 115 ID = 1840
  10.081559 1  730             Tx   d 8 26 E0 0F 4B 5B 68 13 F4  Length = 226000 BitCount = 116 ID = 1840
  10.081795 1  730             Tx   d 8 27 00 3F 04 D0 14 4B 43  Length = 230000 BitCount = 118 ID = 1840
  10.082031 1  730             Tx   d 8 28 43 12 4C 23 60 03 E0  Length = 230000 BitCount = 118 ID = 1840
  10.082325 1  7B0             Rx   d 8 30 08 00 00 00 00 00 00  Length = 239910 BitCount = 124 ID = 1968
  10.082803 1  730             Tx   d 8 29 0F 4B 43 43 0F 4C 23  Length = 220244 BitCount = 113 ID = 1840
  10.083040 1  730             Tx   d 8 2A 60 03 E0 0D 4B 0D 4C  Length = 230244 BitCount = 118 ID = 1840
  10.083278 1  730             Tx   d 8 2B 23 60 00 BF 00 BF 05  Length = 232000 BitCount = 119 ID = 1840
  10.083510 1  730             Tx   d 8 2C 4B 5B 68 C3 F3 03 13  Length = 226000 BitCount = 116 ID = 1840
  10.083740 1  730             Tx   d 8 2D 0B 4C E1 5C 08 4B 1B  Length = 224000 BitCount = 115 ID = 1840
  10.083972 1  730             Tx   d 8 2E 68 CB 40 07 4C 23 60  Length = 226000 BitCount = 116 ID = 1840
  10.084212 1  730             Tx   d 8 2F 10 BD 00 10 02 40 00  Length = 234000 BitCount = 120 ID = 1840
  10.084460 1  730             Tx   d 8 20 20 02 40 00 00 FF F8  Length = 242000 BitCount = 124 ID = 1840
  10.084764 1  7B0             Rx   d 8 30 08 00 00 00 00 00 00  Length = 239910 BitCount = 124 ID = 1968
  10.085380 1  730             Tx   d 8 21 FF FF F6 FE 08 ED 00  Length = 234259 BitCount = 120 ID = 1840
  10.085614 1  730             Tx   d 8 22 E0 00 12 7A 00 AA AA  Length = 228259 BitCount = 117 ID = 1840
  10.086698 1  7B0             Rx   d 8 03 7F 36 78 00 00 00 00  Length = 233925 BitCount = 121 ID = 1968
  10.086942 1  7B0             Rx   d 8 02 76 24 00 00 00 00 00  Length = 235925 BitCount = 122 ID = 1968
  10.088716 1  730             Tx   d 8 10 82 36 25 14 00 00 20  Length = 232259 BitCount = 119 ID = 1840
  10.089018 1  7B0             Rx   d 8 30 08 00 00 00 00 00 00  Length = 239925 BitCount = 124 ID = 1968
  10.089589 1  730             Tx   d 8 21 00 09 3D 00 18 00 00  Length = 236259 BitCount = 121 ID = 1840
  10.089827 1  730             Tx   d 8 22 20 40 EA 01 03 9B 07  Length = 232259 BitCount = 119 ID = 1840
  10.090061 1  730             Tx   d 8 23 03 D0 09 E0 08 C9 12  Length = 228015 BitCount = 117 ID = 1840
  10.090297 1  730             Tx   d 8 24 1F 08 C0 04 2A FA D2  Length = 230015 BitCount = 118 ID = 1840
  10.090537 1  730             Tx   d 8 25 03 E0 11 F8 01 3B 00  Length = 234015 BitCount = 120 ID = 1840
  10.090771 1  730             Tx   d 8 26 F8 01 3B 52 1E F9 D2  Length = 228015 BitCount = 117 ID = 1840
  10.091009 1  730             Tx   d 8 27 70 47 D2 B2 01 E0 00  Length = 232015 BitCount = 119 ID = 1840
  10.091243 1  730             Tx   d 8 28 F8 01 2B 49 1E FB D2  Length = 228015 BitCount = 117 ID = 1840
  10.091533 1  7B0             Rx   d 8 30 08 00 00 00 00 00 00  Length = 239910 BitCount = 124 ID = 1968
  10.092149 1  730             Tx   d 8 29 70 47 00 22 F6 E7 10  Length = 228244 BitCount = 117 ID = 1840
  10.092379 1  730             Tx   d 8 2A B5 04 46 08 46 11 46  Length = 224000 BitCount = 115 ID = 1840
  10.092617 1  730             Tx   d 8 2B 02 46 20 46 FF F7 EF  Length = 232000 BitCount = 119 ID = 1840
  10.092849 1  730             Tx   d 8 2C FF 20 46 10 BD 03 46  Length = 226000 BitCount = 116 ID = 1840
  10.093089 1  730             Tx   d 8 2D 11 F8 01 2B 00 F8 01  Length = 234000 BitCount = 120 ID = 1840
  10.093321 1  730             Tx   d 8 2E 2B 00 2A F9 D1 18 46  Length = 226000 BitCount = 116 ID = 1840
  10.093559 1  730             Tx   d 8 2F 70 47 06 4C 07 4D 06  Length = 232000 BitCount = 119 ID = 1840
  10.093799 1  730             Tx   d 8 20 E0 E0 68 40 F0 01 03  Length = 234000 BitCount = 120 ID = 1840
  10.094107 1  7B0             Rx   d 8 30 08 00 00 00 00 00 00  Length = 239910 BitCount = 124 ID = 1968
  10.094582 1  730             Tx   d 8 21 94 E8 07 00 98 47 10  Length = 228244 BitCount = 117 ID = 1840
  10.094808 1  730             Tx   d 8 22 34 AC 42 F6 D3 AA AA  Length = 220244 BitCount = 113 ID = 1840
  10.095692 1  7B0             Rx   d 8 03 7F 36 78 00 00 00 00  Length = 233910 BitCount = 121 ID = 1968
  10.095936 1  7B0             Rx   d 8 02 76 25 00 00 00 00 00  Length = 235910 BitCount = 122 ID = 1968
  10.097616 1  730             Tx   d 8 10 82 36 26 FE F7 5A FF  Length = 226244 BitCount = 116 ID = 1840
  10.097906 1  7B0             Rx   d 8 30 08 00 00 00 00 00 00  Length = 239925 BitCount = 124 ID = 1968
  10.098368 1  730             Tx   d 8 21 AC 12 00 08 CC 12 00  Length = 230259 BitCount = 118 ID = 1840
  10.098604 1  730             Tx   d 8 22 08 02 E0 08 C8 12 1F  Length = 230259 BitCount = 118 ID = 1840
  10.098838 1  730             Tx   d 8 23 08 C1 00 2A FA D1 70  Length = 228015 BitCount = 117 ID = 1840
  10.099076 1  730             Tx   d 8 24 47 70 47 00 20 01 E0  Length = 232015 BitCount = 119 ID = 1840
  10.099314 1  730             Tx   d 8 25 01 C1 12 1F 00 2A FB  Length = 232015 BitCount = 119 ID = 1840
  10.099550 1  730             Tx   d 8 26 D1 70 47 00 00 CC 12  Length = 230015 BitCount = 118 ID = 1840
  10.099792 1  730             Tx   d 8 27 00 08 00 00 00 20 28  Length = 236015 BitCount = 121 ID = 1840
  10.100036 1  730             Tx   d 8 28 00 00 00 8C 12 00 08  Length = 238015 BitCount = 122 ID = 1840
  10.100338 1  7B0             Rx   d 8 30 08 00 00 00 00 00 00  Length = 239910 BitCount = 124 ID = 1968
  10.100859 1  730             Tx   d 8 29 F4 12 00 08 28 00 00  Length = 238244 BitCount = 122 ID = 1840
  10.101103 1  730             Tx   d 8 2A 20 00 04 00 00 9C 12  Length = 238244 BitCount = 122 ID = 1840
  10.101349 1  730             Tx   d 8 2B 00 08 00 00 00 00 01  Length = 240000 BitCount = 123 ID = 1840
  10.101591 1  730             Tx   d 8 2C 02 03 04 01 02 03 04  Length = 236000 BitCount = 121 ID = 1840
  10.101831 1  730             Tx   d 8 2D 06 07 08 09 02 04 06  Length = 234000 BitCount = 120 ID = 1840
  10.102071 1  730             Tx   d 8 2E 08 00 A2 4A 04 00 00  Length = 234000 BitCount = 120 ID = 1840
  10.102321 1  730             Tx   d 8 2F 00 00 00 00 00 00 01  Length = 244000 BitCount = 125 ID = 1840
  10.102561 1  730             Tx   d 8 20 02 03 04 06 07 08 09  Length = 234000 BitCount = 120 ID = 1840
  10.102859 1  7B0             Rx   d 8 30 08 00 00 00 00 00 00  Length = 239910 BitCount = 124 ID = 1968
  10.103327 1  730             Tx   d 8 21 AA AA AA AA AA AA AA  Length = 222259 BitCount = 114 ID = 1840
  10.103553 1  730             Tx   d 8 22 AA AA AA AA AA AA AA  Length = 220259 BitCount = 113 ID = 1840
